angle_deg,freq_Hz,S11_re,S11_im,S21_re,S21_im,S11_dB,S21_dB
0.0,1000000000,-9.170720000e-05,-7.753510000e-05,-5.893043000e-04,-3.440864000e-04,-78.409775,-63.319171
0.0,1020000000,-9.175680000e-05,-7.744210000e-05,-8.958117000e-04,1.640890600e-03,-78.411375,-54.565527
0.0,1040000000,-9.169820000e-05,-7.770520000e-05,9.450442000e-04,6.658310000e-04,-78.402326,-58.740507
0.0,1060000000,-9.161260000e-05,-7.758490000e-05,2.267068900e-03,-1.685699200e-03,-78.412672,-50.979327
0.0,1080000000,-9.173300000e-05,-7.756890000e-05,-2.980573600e-03,1.202052400e-03,-78.406772,-49.859523
0.0,1100000000,-9.181860000e-05,-7.764420000e-05,-2.015496600e-03,-1.715950800e-03,-78.398534,-51.544856
0.0,1120000000,-9.179130000e-05,-7.759670000e-05,3.795653600e-03,5.777526000e-04,-78.402256,-48.314794
0.0,1140000000,-9.175690000e-05,-7.733990000e-05,-5.848828000e-04,-7.161680900e-03,-78.416137,-42.870831
0.0,1160000000,-9.185550000e-05,-7.759340000e-05,-1.434813100e-03,6.721633700e-03,-78.398867,-43.256989
0.0,1180000000,-9.172900000e-05,-7.760990000e-05,2.365141000e-04,-2.188428200e-03,-78.405078,-53.146922
0.0,1200000000,-9.187760000e-05,-7.753600000e-05,4.136437000e-04,1.689038900e-03,-78.400322,-55.194249
0.0,1220000000,-9.192850000e-05,-7.770040000e-05,-7.274084700e-03,-4.683128500e-03,-78.389855,-41.258430
0.0,1240000000,-9.163060000e-05,-7.746380000e-05,2.473008000e-04,6.649158500e-03,-78.417338,-43.538663
0.0,1260000000,-9.166640000e-05,-7.756970000e-05,1.352942200e-03,3.276814900e-03,-78.410411,-49.007349
0.0,1280000000,-9.135480000e-05,-7.758190000e-05,6.884896600e-03,-4.417898500e-03,-78.427049,-41.744465
0.0,1300000000,-9.184270000e-05,-7.751000000e-05,-4.346545200e-03,3.518788000e-03,-78.403461,-45.048121
0.0,1320000000,-9.174200000e-05,-7.757990000e-05,-2.685096100e-03,6.364324800e-03,-78.405761,-43.213508
0.0,1340000000,-9.155240000e-05,-7.766850000e-05,1.708893750e-02,8.854739900e-03,-78.412083,-34.312842
0.0,1360000000,-9.184590000e-05,-7.773420000e-05,-2.017236500e-03,-4.766245200e-03,-78.392832,-45.720867
0.0,1380000000,-9.182450000e-05,-7.738310000e-05,-2.284087000e-04,7.107091500e-03,-78.410383,-42.961679
0.0,1400000000,-9.183680000e-05,-7.755470000e-05,9.228358100e-03,1.287525270e-02,-78.401703,-36.004392
0.0,1420000000,-9.182730000e-05,-7.765230000e-05,1.573575550e-02,-1.036995250e-02,-78.397677,-34.495883
0.0,1440000000,-9.153910000e-05,-7.766730000e-05,8.351887000e-04,7.066081700e-03,-78.412873,-42.956174
0.0,1460000000,-9.138660000e-05,-7.766120000e-05,2.103128800e-03,1.162577500e-03,-78.421574,-52.384678
0.0,1480000000,-9.224090000e-05,-7.730830000e-05,1.417781830e-02,1.215026180e-02,-78.390828,-34.576235
0.0,1500000000,-9.166080000e-05,-7.661810000e-05,6.404212200e-03,-3.071921700e-03,-78.455141,-42.971333
0.0,1520000000,-9.247170000e-05,-7.678130000e-05,1.466912510e-02,3.464945500e-03,-78.402409,-36.436125
0.0,1540000000,-9.200700000e-05,-7.746440000e-05,4.102819200e-03,4.489390800e-03,-78.396509,-44.319420
0.0,1560000000,-9.226820000e-05,-7.698510000e-05,1.566029760e-02,7.077667900e-03,-78.404290,-35.296802
0.0,1580000000,-9.223400000e-05,-7.733900000e-05,1.060701610e-02,3.567800500e-03,-78.389786,-39.022639
0.0,1600000000,-9.321140000e-05,-7.645760000e-05,6.793824000e-03,1.958018400e-03,-78.376110,-43.011179
0.0,1620000000,-9.131250000e-05,-7.699570000e-05,4.440353700e-03,-1.233579300e-03,-78.456883,-46.728770
0.0,1640000000,-9.147130000e-05,-7.886720000e-05,2.164643760e-02,7.540945200e-03,-78.360330,-32.794817
0.0,1660000000,-9.159180000e-05,-7.758130000e-05,1.784476990e-02,-3.646437100e-03,-78.413988,-34.792122
0.0,1680000000,-9.223630000e-05,-7.766410000e-05,1.380505130e-02,1.215010390e-02,-78.374581,-34.708207
0.0,1700000000,-9.205740000e-05,-7.767340000e-05,1.868174590e-02,-5.720910900e-03,-78.384008,-34.182364
0.0,1720000000,-9.098710000e-05,-7.713780000e-05,1.020420600e-02,-5.014708400e-03,-78.468289,-38.884918
0.0,1740000000,-9.218680000e-05,-7.719290000e-05,2.392059800e-02,-9.830647400e-03,-78.399173,-31.746799
0.0,1760000000,-9.345840000e-05,-7.831380000e-05,1.660733440e-02,1.893441400e-03,-78.277614,-35.537912
0.0,1780000000,-9.188220000e-05,-7.792720000e-05,2.660985640e-02,3.507221500e-03,-78.381833,-31.424353
0.0,1800000000,-9.128430000e-05,-7.565500000e-05,2.206478910e-02,-6.892504000e-03,-78.521227,-32.721648
0.0,1820000000,-9.075680000e-05,-7.605920000e-05,2.163591690e-02,-1.086944840e-02,-78.531963,-32.319114
0.0,1840000000,-9.278340000e-05,-7.817650000e-05,3.016726660e-02,2.102645100e-03,-78.320826,-30.388234
0.0,1860000000,-9.220600000e-05,-7.982750000e-05,3.914137960e-02,6.334512800e-03,-78.275612,-28.034995
0.0,1880000000,-8.991400000e-05,-7.807210000e-05,5.137436080e-02,3.098946920e-02,-78.483305,-24.437371
0.0,1900000000,-9.155400000e-05,-7.677270000e-05,9.535777000e-03,-1.554865680e-02,-78.453879,-34.779579
0.0,1920000000,-9.012950000e-05,-7.630160000e-05,6.904078180e-02,1.515876330e-02,-78.555734,-23.013413
0.0,1940000000,-9.310350000e-05,-8.067070000e-05,5.425701870e-02,1.650719770e-02,-78.188420,-24.926419
0.0,1960000000,-9.119370000e-05,-7.472790000e-05,7.978656080e-02,2.397438260e-02,-78.569680,-21.585988
0.0,1980000000,-9.291900000e-05,-7.344420000e-05,8.046576620e-02,6.498419750e-02,-78.530045,-19.707102
0.0,2000000000,-8.452590000e-05,-8.184060000e-05,1.058847188e-01,-4.115928160e-02,-78.587851,-18.892198
0.0,2020000000,-9.795860000e-05,-8.326700000e-05,1.588576835e-01,4.647063280e-02,-77.817460,-15.623242
0.0,2040000000,-8.498270000e-05,-7.865640000e-05,6.182442980e-02,-8.787582120e-02,-78.726072,-19.376279
0.0,2060000000,-8.833950000e-05,-7.598220000e-05,1.244367272e-01,-5.652170140e-02,-78.671910,-17.286417
0.0,2080000000,-8.636630000e-05,-9.057560000e-05,1.091979932e-01,-7.869498550e-02,-78.051229,-17.419113
0.0,2100000000,-8.620660000e-05,-7.690470000e-05,1.851916900e-01,2.373529000e-02,-78.746518,-14.576810
0.0,2120000000,-8.768050000e-05,-6.919860000e-05,9.298016080e-02,-6.020937680e-02,-79.039136,-19.111385
0.0,2140000000,-9.283680000e-05,-6.823040000e-05,1.095208692e-01,-7.531254170e-02,-78.769963,-17.528421
0.0,2160000000,-1.040148000e-04,-7.602730000e-05,4.823905540e-02,-1.019293350e-01,-77.799121,-18.956291
0.0,2180000000,-8.431870000e-05,-7.160360000e-05,7.053657980e-02,-2.046148362e-01,-79.123350,-13.293586
0.0,2200000000,-7.976090000e-05,-7.591540000e-05,1.780454720e-02,-9.096835820e-02,-79.163201,-20.658934
0.0,2220000000,-7.919080000e-05,-6.441150000e-05,-7.191578000e-04,3.900290740e-02,-79.821313,-28.176584
0.0,2240000000,-8.090870000e-05,-8.592980000e-05,5.715926240e-02,-2.407491400e-02,-78.560443,-24.149023
0.0,2260000000,-9.062910000e-05,-6.804280000e-05,5.919622380e-02,-7.040948960e-02,-78.913181,-20.725429
0.0,2280000000,-1.045602000e-04,-8.426920000e-05,1.229066588e-01,-4.041103180e-02,-77.439047,-17.762679
0.0,2300000000,-9.348510000e-05,-6.739060000e-05,8.451707360e-02,-3.172567200e-03,-78.767706,-21.454996
0.0,2320000000,-9.492900000e-05,-7.410440000e-05,3.500239680e-02,-9.700006640e-02,-78.385428,-19.732960
0.0,2340000000,-8.163980000e-05,-4.526710000e-05,1.352092365e-01,-8.679800600e-02,-80.597741,-15.881206
0.0,2360000000,-1.010675000e-04,-9.177390000e-05,1.275377801e-01,-7.325620100e-02,-77.296219,-16.648962
0.0,2380000000,-9.661570000e-05,-9.151580000e-05,4.755355640e-02,-4.320474000e-04,-77.517879,-26.455981
0.0,2400000000,-9.537230000e-05,-7.838400000e-05,5.269027800e-02,-7.389329800e-03,-78.170171,-25.480804
0.0,2420000000,-9.842590000e-05,-8.967060000e-05,9.788149000e-03,3.681327640e-02,-77.513286,-28.383251
0.0,2440000000,-9.831090000e-05,-8.819800000e-05,3.863277920e-02,-2.619539072e-01,-77.583559,-11.542055
0.0,2460000000,-9.678470000e-05,-8.312600000e-05,-6.142994280e-02,-1.439657960e-02,-77.884200,-24.000188
0.0,2480000000,-7.945300000e-05,-8.513830000e-05,8.586605280e-02,-4.070064640e-02,-78.676984,-20.443353
0.0,2500000000,-6.935230000e-05,-8.585920000e-05,2.244471388e-01,-2.051921560e-02,-79.142977,-12.941572
0.0,2520000000,-8.088600000e-05,-6.897260000e-05,8.817166280e-02,-4.847648160e-02,-79.469306,-19.946388
0.0,2540000000,-6.799270000e-05,-5.641960000e-05,1.577081846e-01,-1.865323480e-02,-81.075615,-15.982581
0.0,2560000000,-8.243260000e-05,-5.192310000e-05,5.153711600e-03,-3.853955200e-02,-80.226815,-28.204891
0.0,2580000000,-7.426750000e-05,-8.265050000e-05,-3.465484890e-02,-2.108638200e-02,-79.084468,-27.836773
0.0,2600000000,-1.093475000e-04,-8.827270000e-05,8.961965880e-02,-9.957769860e-02,-77.044561,-17.459984
0.0,2620000000,-6.952910000e-05,-8.892650000e-05,5.035745160e-02,6.978665500e-03,-78.947550,-25.876109
0.0,2640000000,-8.539570000e-05,-9.249620000e-05,4.747988330e-02,-1.238160530e-02,-78.000263,-26.184078
0.0,2660000000,-8.880660000e-05,-8.202410000e-05,5.521116700e-02,-2.912989600e-03,-78.352141,-25.147389
0.0,2680000000,-9.851620000e-05,-6.680010000e-05,6.319771200e-02,-1.872477030e-02,-78.487008,-23.620534
0.0,2700000000,-7.372280000e-05,-7.604920000e-05,5.852341380e-02,-1.337219280e-02,-79.500640,-24.432387
0.0,2720000000,-6.143540000e-05,-5.178290000e-05,4.031710100e-02,-1.357091590e-02,-81.900515,-27.424082
0.0,2740000000,-7.927900000e-05,-8.429460000e-05,1.189507392e-01,3.787463690e-02,-78.731954,-18.073276
0.0,2760000000,-9.540630000e-05,-8.153740000e-05,1.082042060e-01,7.270646300e-03,-78.026999,-19.295553
0.0,2780000000,-7.715810000e-05,-9.226640000e-05,8.025037220e-02,-1.622774150e-02,-78.396377,-21.737009
0.0,2800000000,-9.661610000e-05,-7.234120000e-05,9.814015600e-02,-5.596939240e-02,-78.366025,-18.940111
0.0,2820000000,-9.416610000e-05,-7.817430000e-05,6.029100160e-02,-3.248159140e-02,-78.245324,-23.288217
0.0,2840000000,-9.412150000e-05,-7.347800000e-05,5.915217360e-02,-6.511259430e-02,-78.459453,-21.113359
0.0,2860000000,-8.008280000e-05,-7.066850000e-05,6.216892400e-02,-7.617423840e-02,-79.428175,-20.146863
0.0,2880000000,-8.328710000e-05,-9.580160000e-05,6.018128320e-02,-4.801054600e-02,-77.927781,-22.271798
0.0,2900000000,-7.171920000e-05,-1.102177000e-04,1.141157222e-01,-1.927578190e-02,-77.621652,-18.730912
0.0,2920000000,-1.053327000e-04,-9.483550000e-05,-2.863457400e-03,-6.348093350e-02,-76.970471,-23.938306
0.0,2940000000,-9.296380000e-05,-7.464530000e-05,3.014685240e-02,-6.548467620e-02,-78.472779,-22.842410
0.0,2960000000,-9.186220000e-05,-8.092840000e-05,5.773824940e-02,-8.137621080e-02,-78.242543,-20.019241
0.0,2980000000,-9.402110000e-05,-6.056530000e-05,2.299788680e-02,-7.538911620e-02,-79.028079,-22.067391
0.0,3000000000,-1.010906000e-04,-6.394260000e-05,4.550285020e-02,-1.265256872e-01,-78.444221,-17.428194
3.0,1000000000,-9.170660000e-05,-7.758520000e-05,-6.343978000e-04,2.784751000e-04,-78.407468,-63.187507
3.0,1020000000,-9.157290000e-05,-7.737740000e-05,9.552452000e-04,1.104837000e-03,-78.424569,-56.709769
3.0,1040000000,-9.175450000e-05,-7.751830000e-05,1.120577000e-04,3.081914000e-03,-78.407946,-50.217852
3.0,1060000000,-9.161060000e-05,-7.747240000e-05,2.613948300e-03,-1.845649600e-03,-78.418042,-49.897362
3.0,1080000000,-9.161710000e-05,-7.750370000e-05,-2.100049300e-03,9.871652000e-04,-78.416219,-52.688383
3.0,1100000000,-9.174600000e-05,-7.747360000e-05,-1.782068900e-03,-2.217892100e-03,-78.410502,-50.917931
3.0,1120000000,-9.162770000e-05,-7.755290000e-05,8.567739000e-04,-3.512165000e-04,-78.413334,-60.668092
3.0,1140000000,-9.190190000e-05,-7.757960000e-05,-1.240036400e-03,-7.405615700e-03,-78.396950,-42.488685
3.0,1160000000,-9.183880000e-05,-7.751030000e-05,-7.165355000e-04,6.454407200e-03,-78.403663,-43.749676
3.0,1180000000,-9.190580000e-05,-7.774110000e-05,-1.626536900e-03,-4.708218000e-04,-78.389210,-55.425276
3.0,1200000000,-9.190710000e-05,-7.759180000e-05,-1.293115000e-04,2.341400300e-03,-78.396094,-52.597260
3.0,1220000000,-9.171620000e-05,-7.736200000e-05,-6.809129000e-03,-5.091025300e-03,-78.417358,-41.409652
3.0,1240000000,-9.186990000e-05,-7.757210000e-05,-1.602889500e-03,5.842669100e-03,-78.399065,-44.352625
3.0,1260000000,-9.173040000e-05,-7.753250000e-05,2.903220600e-03,1.713451300e-03,-78.408615,-49.444456
3.0,1280000000,-9.167340000e-05,-7.753060000e-05,7.843090800e-03,-4.247642500e-03,-78.411852,-40.993241
3.0,1300000000,-9.145190000e-05,-7.733710000e-05,-3.969305400e-03,3.416615300e-03,-78.433153,-45.617956
3.0,1320000000,-9.203200000e-05,-7.726770000e-05,-1.057507600e-03,7.732039000e-03,-78.404272,-42.153631
3.0,1340000000,-9.176540000e-05,-7.771960000e-05,1.743014600e-02,8.223378900e-03,-78.397949,-34.301184
3.0,1360000000,-9.209660000e-05,-7.748360000e-05,-3.447849600e-03,-4.464932400e-03,-78.390667,-44.972549
3.0,1380000000,-9.185780000e-05,-7.783940000e-05,1.103923400e-03,7.144695700e-03,-78.387270,-42.817864
3.0,1400000000,-9.174970000e-05,-7.737280000e-05,1.178225440e-02,1.423183850e-02,-78.415001,-34.667788
3.0,1420000000,-9.163430000e-05,-7.754190000e-05,1.404670410e-02,-7.839943600e-03,-78.413483,-35.870783
3.0,1440000000,-9.195710000e-05,-7.765760000e-05,1.345537500e-03,7.539129300e-03,-78.390272,-42.317398
3.0,1460000000,-9.187540000e-05,-7.800570000e-05,2.322988400e-03,4.519467300e-03,-78.378546,-45.880125
3.0,1480000000,-9.150860000e-05,-7.806610000e-05,1.339901860e-02,8.568095400e-03,-78.395873,-35.969723
3.0,1500000000,-9.118500000e-05,-7.713210000e-05,8.227870300e-03,-4.762680400e-03,-78.457567,-40.439230
3.0,1520000000,-9.179630000e-05,-7.837070000e-05,5.830524600e-03,1.681529750e-02,-78.365843,-34.992844
3.0,1540000000,-9.144170000e-05,-7.645330000e-05,7.288293300e-03,6.252241200e-03,-78.475070,-40.352232
3.0,1560000000,-9.182910000e-05,-7.723460000e-05,1.514273940e-02,7.243354800e-03,-78.417049,-35.501072
3.0,1580000000,-9.215520000e-05,-7.717380000e-05,5.081848300e-03,3.446819800e-03,-78.401810,-44.235924
3.0,1600000000,-9.176340000e-05,-7.667470000e-05,3.136302700e-03,1.455583480e-02,-78.446782,-36.542172
3.0,1620000000,-9.130340000e-05,-7.730070000e-05,2.606303010e-02,8.315420900e-03,-78.443085,-31.258501
3.0,1640000000,-9.235770000e-05,-7.679140000e-05,1.537131160e-02,2.921214100e-03,-78.408281,-36.111696
3.0,1660000000,-9.075170000e-05,-7.696430000e-05,1.451696290e-02,-4.646039000e-03,-78.489559,-36.338987
3.0,1680000000,-9.200240000e-05,-7.737230000e-05,1.827552550e-02,3.317516700e-03,-78.401047,-34.621800
3.0,1700000000,-9.021890000e-05,-7.769870000e-05,2.463388770e-02,-2.678719000e-03,-78.484298,-32.118288
3.0,1720000000,-9.208120000e-05,-7.697460000e-05,1.193187910e-02,-2.307630000e-03,-78.415158,-38.306345
3.0,1740000000,-9.172900000e-05,-7.683140000e-05,3.199588330e-02,-5.842390600e-03,-78.441397,-29.755677
3.0,1760000000,-9.114200000e-05,-7.777000000e-05,9.345408700e-03,2.780275000e-04,-78.429957,-40.584192
3.0,1780000000,-9.125270000e-05,-7.513690000e-05,1.349831760e-02,3.421212900e-03,-78.547225,-37.124014
3.0,1800000000,-9.250480000e-05,-7.883960000e-05,1.234779670e-02,1.470004300e-03,-78.305366,-38.107091
3.0,1820000000,-9.194980000e-05,-7.863290000e-05,2.493818790e-02,-1.999518220e-02,-78.345213,-29.906679
3.0,1840000000,-9.314020000e-05,-8.078130000e-05,3.046455780e-02,7.764374100e-03,-78.181360,-30.050783
3.0,1860000000,-9.127780000e-05,-7.861990000e-05,2.234380380e-02,4.234715000e-04,-78.382510,-33.015298
3.0,1880000000,-9.379850000e-05,-7.830510000e-05,5.081683980e-02,3.055909100e-02,-78.259446,-24.539253
3.0,1900000000,-8.970680000e-05,-7.560380000e-05,3.817780700e-02,-5.106750780e-02,-78.612792,-23.908929
3.0,1920000000,-9.380440000e-05,-7.753570000e-05,3.365696990e-02,2.690986360e-02,-78.294141,-27.312039
3.0,1940000000,-9.578130000e-05,-7.908230000e-05,2.970387630e-02,9.553167000e-04,-78.116885,-30.539248
3.0,1960000000,-8.972700000e-05,-7.356340000e-05,8.707698920e-02,5.667248000e-03,-78.708740,-21.183575
3.0,1980000000,-9.570520000e-05,-7.712230000e-05,5.555171860e-02,-3.747518530e-02,-78.208122,-23.477166
3.0,2000000000,-9.788790000e-05,-7.048330000e-05,8.943108960e-02,1.884441720e-02,-78.371389,-20.781559
3.0,2020000000,-8.362360000e-05,-7.954660000e-05,1.644435278e-01,3.544182560e-02,-78.754773,-15.482474
3.0,2040000000,-8.584190000e-05,-7.379900000e-05,9.367672420e-02,-4.520964250e-02,-78.922772,-19.658032
3.0,2060000000,-9.503420000e-05,-6.039610000e-05,1.229218146e-01,-1.095997590e-02,-78.969086,-18.173031
3.0,2080000000,-8.985770000e-05,-7.404530000e-05,-6.690236360e-02,-8.008080840e-02,-78.678328,-19.630175
3.0,2100000000,-9.512830000e-05,-7.636440000e-05,1.046781520e-01,-7.143293360e-02,-78.273704,-17.942496
3.0,2120000000,-9.449560000e-05,-9.869850000e-05,8.426365600e-02,-5.591767900e-02,-77.288368,-19.902454
3.0,2140000000,-1.006894000e-04,-1.001090000e-04,1.363921954e-01,-1.205063280e-01,-76.955059,-14.798493
3.0,2160000000,-9.909860000e-05,-8.594420000e-05,5.059311150e-02,-1.154283738e-01,-77.642964,-17.990573
3.0,2180000000,-1.142547000e-04,-7.357030000e-05,6.945561320e-02,1.485250760e-02,-77.336101,-22.971664
3.0,2200000000,-8.390290000e-05,-6.236930000e-05,1.542530256e-01,-1.123817506e-01,-79.613947,-14.386165
3.0,2220000000,-9.722540000e-05,-7.080880000e-05,7.522298320e-02,-6.659944480e-02,-78.396316,-19.959374
3.0,2240000000,-8.005390000e-05,-9.051330000e-05,7.649876650e-02,-4.375692820e-02,-78.356089,-21.097618
3.0,2260000000,-9.782930000e-05,-8.780390000e-05,6.056385100e-02,-5.709478430e-02,-77.624538,-21.594050
3.0,2280000000,-1.032219000e-04,-6.895880000e-05,8.387573680e-02,-7.846858960e-02,-78.121952,-18.796743
3.0,2300000000,-8.275330000e-05,-9.355750000e-05,-4.574583400e-03,-7.711430180e-02,-78.068444,-22.242045
3.0,2320000000,-9.851850000e-05,-8.120450000e-05,-1.950883220e-02,7.082642120e-02,-77.878106,-22.678495
3.0,2340000000,-8.950800000e-05,-7.665630000e-05,6.737013730e-02,-7.728400160e-02,-78.573643,-19.783331
3.0,2360000000,-8.545720000e-05,-8.122870000e-05,7.046203890e-02,-9.963052960e-02,-78.569529,-18.270720
3.0,2380000000,-9.561240000e-05,-7.948170000e-05,8.121669980e-02,-8.234601660e-02,-78.108166,-18.736407
3.0,2400000000,-9.201940000e-05,-6.723460000e-05,1.443131432e-01,-9.196387610e-02,-78.864557,-15.333750
3.0,2420000000,-9.059270000e-05,-7.388650000e-05,-2.713125600e-02,7.433106400e-03,-78.643506,-31.016280
3.0,2440000000,-1.075610000e-04,-7.327650000e-05,1.245514354e-01,-1.427524660e-02,-77.711170,-18.036347
3.0,2460000000,-9.587780000e-05,-8.278610000e-05,1.604701004e-01,1.376505720e-02,-77.946308,-15.860279
3.0,2480000000,-9.939400000e-05,-7.785310000e-05,1.089754458e-01,-5.426494760e-02,-77.975043,-18.291421
3.0,2500000000,-9.884270000e-05,-6.970420000e-05,1.287513307e-01,-1.160177301e-01,-78.347986,-15.223432
3.0,2520000000,-1.085704000e-04,-7.139860000e-05,9.251616280e-02,5.221427660e-02,-77.724914,-19.474765
3.0,2540000000,-1.148505000e-04,-5.685870000e-05,-4.711827900e-03,-7.304728640e-02,-77.845330,-22.709886
3.0,2560000000,-7.164580000e-05,-5.767740000e-05,7.132957280e-02,-8.335887040e-02,-80.726397,-19.194958
3.0,2580000000,-8.360350000e-05,-9.642170000e-05,1.188326228e-01,-8.679397400e-03,-77.881672,-18.478180
3.0,2600000000,-7.438870000e-05,-1.035126000e-04,3.764994720e-02,-1.003395384e-01,-77.891857,-19.398485
3.0,2620000000,-8.786790000e-05,-7.638080000e-05,4.055992460e-02,1.632949190e-02,-78.679071,-27.185667
3.0,2640000000,-1.096620000e-04,-6.841300000e-05,3.782245750e-02,2.824117100e-03,-77.771251,-28.420859
3.0,2660000000,-1.020433000e-04,-5.380330000e-05,6.136355410e-02,-8.412495900e-03,-78.758993,-24.160924
3.0,2680000000,-8.776610000e-05,-8.305070000e-05,6.721032320e-02,7.339922200e-03,-78.356380,-23.399791
3.0,2700000000,-8.706050000e-05,-9.332900000e-05,8.135980960e-02,2.884133470e-02,-77.880834,-21.277714
3.0,2720000000,-7.795840000e-05,-8.023300000e-05,5.252948680e-02,-2.622570870e-02,-79.025745,-24.625417
3.0,2740000000,-9.644550000e-05,-7.979320000e-05,5.925234500e-02,1.897784240e-02,-78.049673,-24.121770
3.0,2760000000,-9.470670000e-05,-7.643730000e-05,6.799879240e-02,-4.089595410e-02,-78.293857,-22.009136
