angle_deg,freq_Hz,S11_re,S11_im,S21_re,S21_im,S11_dB,S21_dB
0.0,4000000000,-1.720310000e-01,2.513776667e-01,4.524000000e-03,2.577133333e-02,-10.325204,-31.645452
0.0,4004000000,2.221176667e-01,1.268326667e-01,4.711333333e-03,-1.570266667e-02,-11.842710,-35.706186
0.0,4008000000,7.493600000e-02,-1.263173333e-01,-1.013100000e-02,6.316666667e-04,-16.661202,-39.870103
0.0,4012000000,-9.727533333e-02,-2.025666667e-03,8.845000000e-03,1.610966667e-02,-20.238063,-34.713977
0.0,4016000000,1.073823333e-01,-4.460000000e-03,-1.370666667e-03,-2.133733333e-02,-19.373858,-33.399313
0.0,4020000000,-3.017300000e-02,-1.701226667e-01,-8.685000000e-03,7.688000000e-03,-15.250247,-38.711661
0.0,4024000000,-2.381733333e-01,-2.791633333e-02,1.586833333e-02,6.306333333e-03,-12.402879,-35.352514
0.0,4028000000,1.643900000e-02,9.941833333e-02,-1.337866667e-02,-1.361633333e-02,-19.933523,-34.384297
0.0,4032000000,-4.484166667e-02,-1.162520000e-01,-1.510000000e-03,1.098200000e-02,-18.089599,-39.105032
0.0,4036000000,-2.772400000e-01,1.189533333e-02,1.367833333e-02,-3.008666667e-03,-11.134894,-37.074142
0.0,4040000000,1.291366667e-02,2.266400000e-01,-1.714700000e-02,-8.363333333e-03,-12.879192,-34.389404
0.0,4044000000,6.474533333e-02,-6.724266667e-02,4.512333333e-03,1.118600000e-02,-20.598056,-38.371736
0.0,4048000000,-1.549526667e-01,-1.863800000e-02,1.140866667e-02,-1.360433333e-02,-16.133637,-35.013648
0.0,4052000000,5.306366667e-02,1.729830000e-01,-2.016800000e-02,8.733000000e-03,-14.849363,-33.160407
0.0,4056000000,8.902700000e-02,-1.213233333e-01,9.559666667e-03,4.980000000e-03,-16.450246,-39.348401
0.0,4060000000,-1.646406667e-01,-9.255133333e-02,2.201666667e-03,-1.309700000e-02,-14.476689,-37.535538
0.0,4064000000,-2.250366667e-02,1.588740000e-01,-2.133366667e-02,1.792900000e-02,-15.892672,-31.098169
0.0,4068000000,8.185000000e-02,-1.077050000e-01,1.687566667e-02,-3.356333333e-03,-17.375539,-35.286304
0.0,4072000000,-1.794693333e-01,-8.808833333e-02,-8.903000000e-03,-1.124566667e-02,-13.982789,-36.867057
0.0,4076000000,-8.182533333e-02,2.387573333e-01,2.960333333e-03,2.233266667e-02,-11.958575,-32.945540
0.0,4080000000,1.813646667e-01,-3.836633333e-02,7.790000000e-03,-1.190733333e-02,-14.638822,-36.936421
0.0,4084000000,-1.038370000e-01,-1.724556667e-01,-9.599666667e-03,-2.642666667e-03,-13.922976,-40.037630
0.0,4088000000,-2.071383333e-01,7.586500000e-02,7.789333333e-03,1.468633333e-02,-13.128119,-35.585215
0.0,4092000000,-2.813200000e-02,-3.427100000e-02,1.424333333e-03,-1.258700000e-02,-27.064362,-37.946297
0.0,4096000000,-2.589590000e-01,-5.437733333e-02,-9.609000000e-03,2.971666667e-03,-11.547986,-39.949754
0.0,4100000000,-2.356216667e-01,3.229433333e-01,1.123200000e-02,1.155833333e-02,-7.963961,-35.854396
0.0,4104000000,2.564313333e-01,1.565173333e-01,-4.101666667e-03,-1.627633333e-02,-10.445302,-35.501473
0.0,4108000000,2.750866667e-02,-1.150016667e-01,-6.925333333e-03,9.778000000e-03,-18.544273,-38.429377
0.0,4112000000,1.837433333e-02,3.855400000e-02,2.232200000e-02,6.373333333e-04,-27.389687,-33.021799
0.0,4116000000,2.653653333e-01,-2.569103333e-01,-1.905500000e-02,-8.042333333e-03,-8.651166,-33.687875
0.0,4120000000,-1.513776667e-01,-3.746046667e-01,1.750000000e-03,9.984333333e-03,-7.871632,-39.882207
0.0,4124000000,-4.072620000e-01,-2.450866667e-02,1.190733333e-02,-9.091000000e-03,-7.786823,-36.489174
0.0,4128000000,8.942000000e-03,1.754570000e-01,-1.954700000e-02,4.903333333e-04,-15.105321,-34.175666
0.0,4132000000,-5.687300000e-02,-8.677066667e-02,6.027000000e-03,1.020933333e-02,-19.680390,-38.521530
0.0,4136000000,-2.429266667e-01,9.504900000e-02,5.795333333e-03,-1.470700000e-02,-11.671867,-36.022655
0.0,4140000000,3.772500000e-02,1.596603333e-01,-1.593500000e-02,1.850100000e-02,-15.700121,-32.245999
0.0,4144000000,-9.294300000e-02,-6.242966667e-02,1.168600000e-02,1.669333333e-03,-19.018457,-38.558953
0.0,4148000000,-1.460066667e-01,2.151720000e-01,-1.196333333e-03,-1.391366667e-02,-11.699445,-37.099179
0.0,4152000000,4.056806667e-01,2.209810000e-01,-8.078000000e-03,2.103300000e-02,-6.707864,-32.944432
0.0,4156000000,2.277750000e-01,-3.920943333e-01,1.075333333e-02,-8.823333333e-03,-6.869359,-37.133518
0.0,4160000000,-1.383510000e-01,-3.009253333e-01,-1.156133333e-02,-8.005000000e-03,-9.598050,-37.038957
0.0,4164000000,-6.173800000e-02,-9.903400000e-02,3.245666667e-03,2.432366667e-02,-18.658448,-32.202772
0.0,4168000000,-1.343086667e-01,-2.519540000e-01,2.247000000e-03,-1.542866667e-02,-10.887378,-36.142280
0.0,4172000000,-3.262316667e-01,1.323200000e-02,-1.157566667e-02,2.895666667e-03,-9.722339,-38.465481
0.0,4176000000,-4.245633333e-02,3.701900000e-01,1.610766667e-02,1.686333333e-02,-8.574755,-32.645377
0.0,4180000000,1.747116667e-01,-3.830266667e-02,-3.866333333e-03,-1.642466667e-02,-14.949686,-35.455848
0.0,4184000000,-8.782233333e-02,-1.937100000e-02,-6.954333333e-03,7.882333333e-03,-20.921590,-39.566616
0.0,4188000000,1.928866667e-02,1.752270000e-01,2.217033333e-02,-1.327666667e-03,-15.075671,-33.069009
0.0,4192000000,5.878833333e-02,-1.281766667e-01,-1.752133333e-02,-9.659333333e-03,-17.014673,-33.976146
0.0,4196000000,-2.140786667e-01,1.733633333e-02,-7.796666667e-04,8.023666667e-03,-13.360144,-41.871728
0.0,4200000000,3.255733333e-02,3.021996667e-01,1.137333333e-02,-6.254666667e-03,-10.344003,-37.734682
0.0,4204000000,3.525193333e-01,-2.454940000e-01,-1.865666667e-02,6.946333333e-03,-7.339161,-34.019510
0.0,4208000000,-1.379366667e-01,-2.965820000e-01,5.401333333e-03,7.440666667e-03,-9.706673,-40.729484
0.0,4212000000,-1.678743333e-01,3.370000000e-03,9.088333333e-03,-8.031333333e-03,-15.498564,-38.323870
0.0,4216000000,1.699700000e-02,-1.310733333e-01,-1.646533333e-02,7.203000000e-03,-17.577291,-34.908104
0.0,4220000000,-2.292536667e-01,-8.654100000e-02,1.330633333e-02,1.413333333e-03,-12.215117,-37.470111
0.0,4224000000,-1.418253333e-01,1.926333333e-01,-2.221666667e-03,-1.619966667e-02,-12.424368,-35.728954
0.0,4228000000,1.548563333e-01,-5.434333333e-03,-1.203800000e-02,1.725733333e-02,-16.196076,-33.538620
0.0,4232000000,-1.918973333e-01,-8.025266667e-02,1.014800000e-02,-4.005333333e-03,-13.638625,-39.243633
0.0,4236000000,-2.009183333e-01,2.164080000e-01,-1.278466667e-02,-8.976000000e-03,-10.594805,-36.125812
0.0,4240000000,1.456240000e-01,1.700060000e-01,7.450666667e-03,2.460233333e-02,-13.000896,-31.799384
0.0,4244000000,-5.346100000e-02,-3.652466667e-02,4.233333333e-03,-1.029266667e-02,-23.775653,-39.070686
0.0,4248000000,-2.003533333e-02,1.876336667e-01,-7.880000000e-03,2.593333333e-04,-14.484548,-42.064774
0.0,4252000000,4.393113333e-01,8.096000000e-03,1.451433333e-02,1.161466667e-02,-7.143077,-34.614685
0.0,4256000000,8.179333333e-03,-4.890196667e-01,-3.756000000e-03,-1.336800000e-02,-6.212259,-37.148683
0.0,4260000000,-2.405810000e-01,-2.294566667e-01,-6.131333333e-03,3.421666667e-03,-9.565215,-43.071438
0.0,4264000000,-1.700236667e-01,-1.859596667e-01,1.030600000e-02,3.081333333e-03,-11.973012,-39.366357
0.0,4268000000,-3.617540000e-01,-2.167423333e-01,-1.209966667e-02,-5.194000000e-03,-7.499627,-37.610021
0.0,4272000000,-3.586356667e-01,1.223290000e-01,-2.177333333e-03,7.970000000e-03,-8.428942,-41.658230
0.0,4276000000,-1.698600000e-02,4.322930000e-01,1.134800000e-02,3.556666667e-04,-7.277736,-38.897349
0.0,4280000000,2.019323333e-01,8.505900000e-02,-8.138333333e-03,-2.310666667e-03,-13.186529,-41.452590
0.0,4284000000,6.328033333e-02,6.335900000e-02,3.350666667e-03,7.558666667e-03,-20.958926,-41.651953
0.0,4288000000,2.826543333e-01,9.660966667e-02,1.345100000e-02,-1.064300000e-02,-10.495042,-35.313531
0.0,4292000000,2.016143333e-01,-3.366026667e-01,-1.477633333e-02,2.764666667e-03,-8.126212,-36.459234
0.0,4296000000,-1.323506667e-01,-1.127070000e-01,5.339666667e-03,4.307000000e-03,-15.197118,-43.273270
0.0,4300000000,6.123666667e-02,2.437100000e-02,1.455000000e-03,-1.267600000e-02,-23.621227,-37.883509
0.0,4304000000,3.875133333e-02,-4.442746667e-01,-1.562633333e-02,1.953833333e-02,-7.014053,-32.034751
0.0,4308000000,-3.607773333e-01,-2.457483333e-01,9.449333333e-03,-1.943333333e-04,-7.199853,-40.490140
0.0,4312000000,-3.144410000e-01,5.610966667e-02,-5.198666667e-03,-6.095666667e-03,-9.913086,-41.925780
0.0,4316000000,-1.374773333e-01,9.331000000e-02,4.487666667e-03,1.647900000e-02,-15.589844,-35.350686
0.0,4320000000,-1.506063333e-01,1.509030000e-01,7.264333333e-03,-7.925666667e-03,-13.424281,-39.370920
0.0,4324000000,7.447800000e-02,2.917330000e-01,-6.640000000e-03,-3.669333333e-03,-10.426077,-42.399275
0.0,4328000000,4.089193333e-01,9.897666667e-03,4.377666667e-03,8.155666667e-03,-7.764704,-40.671263
0.0,4332000000,6.608700000e-02,-2.058940000e-01,2.836666667e-04,-9.519666667e-03,-13.301271,-40.423711
0.0,4336000000,2.748133333e-02,-1.017533333e-02,-9.477666667e-03,7.770000000e-04,-30.661276,-40.436880
0.0,4340000000,1.644510000e-01,-1.453703333e-01,8.182000000e-03,1.543000000e-02,-13.171633,-35.156574
0.0,4344000000,-1.891860000e-01,-2.079630000e-01,-3.759666667e-03,-9.768000000e-03,-11.021533,-39.603919
0.0,4348000000,-1.504023333e-01,1.044923333e-01,-2.920666667e-03,6.422333333e-03,-14.744433,-43.029743
0.0,4352000000,1.761676667e-01,4.374366667e-02,1.535200000e-02,6.701666667e-03,-14.821636,-35.519182
0.0,4356000000,-5.205966667e-02,-2.887206667e-01,-8.082000000e-03,-1.477766667e-02,-10.651490,-35.471435
0.0,4360000000,-2.403643333e-01,-3.219000000e-02,-1.543000000e-03,7.331000000e-03,-12.305399,-42.508482
0.0,4364000000,-1.129506667e-01,9.331966667e-02,1.315166667e-02,-1.097666667e-02,-16.682405,-35.324606
0.0,4368000000,-1.296383333e-01,-9.607000000e-02,-1.722366667e-02,4.413333333e-04,-15.844334,-35.274637
0.0,4372000000,-2.122176667e-01,1.029593333e-01,3.395666667e-03,7.760333333e-03,-12.546366,-41.441580
0.0,4376000000,8.793066667e-02,3.153836667e-01,4.023333333e-03,-1.015666667e-02,-9.698106,-39.231954
0.0,4380000000,2.092850000e-01,-8.327933333e-02,-1.130566667e-02,1.381100000e-02,-12.946867,-34.968063
0.0,4384000000,-7.074933333e-02,-1.528666667e-02,1.051833333e-02,2.156333333e-03,-22.807391,-39.382268
0.0,4388000000,1.677603333e-01,1.122513333e-01,3.153333333e-04,-9.785000000e-03,-13.899375,-40.184275
0.0,4392000000,2.831663333e-01,-3.817680000e-01,-4.754333333e-03,1.038600000e-02,-6.460261,-38.844804
0.0,4396000000,-2.065740000e-01,-2.886336667e-01,7.436000000e-03,-5.177333333e-03,-8.996908,-40.856628
0.0,4400000000,-1.521726667e-01,-4.646100000e-02,-6.492000000e-03,-8.573666667e-03,-15.966196,-39.368400
0.0,4404000000,-8.552233333e-02,-2.406420000e-01,-5.768666667e-03,1.700633333e-02,-11.856016,-34.914799
0.0,4408000000,-3.770713333e-01,-1.026226667e-01,6.426000000e-03,-6.807000000e-03,-8.161206,-40.573535
0.0,4412000000,-2.427910000e-01,2.037643333e-01,-1.129500000e-02,-1.009000000e-03,-9.979750,-38.907756
0.0,4416000000,1.003980000e-01,1.321880000e-01,1.172166667e-02,1.859200000e-02,-15.598244,-33.159990
0.0,4420000000,-1.255950000e-01,2.789333333e-03,2.740666667e-03,-1.303500000e-02,-18.018411,-37.509914
0.0,4424000000,-2.034333333e-02,2.661896667e-01,-8.018333333e-03,3.379333333e-03,-11.470884,-41.208263
0.0,4428000000,4.425210000e-01,9.593700000e-02,1.889833333e-02,8.679333333e-03,-6.881853,-33.640362
0.0,4432000000,8.643533333e-02,-3.457990000e-01,-1.269766667e-02,-1.418333333e-02,-8.960321,-34.408146
0.0,4436000000,-6.199666667e-03,-6.471333333e-02,-3.198666667e-03,9.508333333e-03,-23.740447,-39.972299
0.0,4440000000,3.167710000e-01,-2.318776667e-01,1.288033333e-02,-7.117333333e-03,-8.121660,-36.644229
0.0,4444000000,-2.104153333e-01,-6.386070000e-01,-1.648700000e-02,2.927666667e-03,-3.447717,-35.522338
0.0,4448000000,-4.338430000e-01,-1.353130000e-01,3.950000000e-03,6.840000000e-03,-6.850182,-42.048982
0.0,4452000000,-2.171443333e-01,9.801200000e-02,8.297333333e-03,-6.285666667e-03,-12.459728,-39.651497
0.0,4456000000,-2.000123333e-01,-6.362666667e-02,-1.176833333e-02,5.231666667e-03,-13.560217,-37.802479
0.0,4460000000,-2.248890000e-01,2.581153333e-01,7.864000000e-03,4.329666667e-03,-9.310776,-40.937269
0.0,4464000000,2.891806667e-01,4.592820000e-01,3.324000000e-03,-1.396633333e-02,-5.308182,-36.859063
0.0,4468000000,4.365470000e-01,-2.364030000e-01,-8.689333333e-03,1.075300000e-02,-6.082542,-37.186677
0.0,4472000000,-4.078300000e-02,-1.003113333e-01,6.264666667e-03,-4.666666667e-06,-19.308643,-44.062038
0.0,4476000000,2.042193333e-01,7.171466667e-02,-4.439333333e-03,-1.198533333e-02,-13.293040,-37.868652
0.0,4480000000,1.941296667e-01,-4.600310000e-01,-6.600333333e-03,2.394000000e-02,-6.032519,-32.099345
0.0,4484000000,-3.300163333e-01,-1.084976667e-01,7.361333333e-03,-6.103333333e-03,-9.183556,-40.388642
0.0,4488000000,-1.016933333e-02,2.264320000e-01,-7.183000000e-03,-4.953333333e-03,-12.892493,-41.184385
0.0,4492000000,2.675903333e-01,-3.657956667e-01,6.629333333e-03,2.271300000e-02,-6.873762,-32.519451
0.0,4496000000,-4.468293333e-01,-2.820033333e-01,3.493666667e-03,-1.685566667e-02,-5.541121,-35.282402
0.0,4500000000,-2.603366667e-01,1.981300000e-01,-1.020000000e-02,2.758000000e-03,-9.704917,-39.521546
0.0,4504000000,1.114213333e-01,1.299400000e-02,1.615733333e-02,6.865333333e-03,-19.001966,-35.111783
0.0,4508000000,-2.540600000e-01,1.114100000e-02,-7.694000000e-03,-1.119500000e-02,-11.892931,-37.339432
0.0,4512000000,1.967100000e-02,2.998796667e-01,-8.381333333e-03,7.384333333e-03,-10.442413,-39.038720
0.0,4516000000,5.350203333e-01,-2.865100000e-02,1.847800000e-02,3.263333333e-04,-5.420158,-34.665546
0.0,4520000000,-1.153343333e-01,-3.408123333e-01,-1.327566667e-02,-4.886333333e-03,-8.878810,-36.987104
0.0,4524000000,-1.111940000e-01,2.060610000e-01,3.013333333e-04,1.065500000e-02,-12.610194,-39.445459
0.0,4528000000,3.824300000e-01,9.782233333e-02,1.999533333e-02,-8.413000000e-03,-8.073715,-33.273555
0.0,4532000000,-8.823033333e-02,-4.246600000e-01,-1.883200000e-02,4.221666667e-03,-7.255634,-34.289126
0.0,4536000000,-1.736633333e-01,5.897500000e-02,7.393000000e-03,5.499666667e-03,-14.731827,-40.710781
0.0,4540000000,3.209196667e-01,-6.280966667e-02,5.434000000e-03,-1.588233333e-02,-9.708822,-35.500947
0.0,4544000000,-3.195040000e-01,-6.978456667e-01,-1.695966667e-02,1.407766667e-02,-2.298321,-33.135327
0.0,4548000000,-6.058420000e-01,3.736233333e-02,1.020900000e-02,-2.476666667e-04,-4.336327,-39.817781
0.0,4552000000,-1.461606667e-01,3.555400000e-01,-8.541000000e-03,-1.104466667e-02,-8.304089,-37.101139
0.0,4556000000,-2.046200000e-02,-1.540633333e-02,-8.100000000e-04,1.936833333e-02,-31.830640,-34.250566
0.0,4560000000,-5.424700000e-02,2.735073333e-01,8.336666667e-03,-5.345666667e-03,-11.093052,-40.084365
0.0,4564000000,5.086213333e-01,2.677210000e-01,-7.927000000e-03,-8.065666667e-03,-4.809991,-38.931556
0.0,4568000000,3.996060000e-01,-5.969450000e-01,8.118000000e-03,1.899800000e-02,-2.873265,-33.697492
0.0,4572000000,-2.913696667e-01,-1.092093333e-01,4.845666667e-03,-1.203533333e-02,-10.140216,-37.738392
0.0,4576000000,1.775256667e-01,1.943883333e-01,-1.246733333e-02,-2.002666667e-03,-11.592531,-37.973889
0.0,4580000000,3.061060000e-01,-5.526663333e-01,1.755533333e-02,1.625933333e-02,-3.988737,-32.421823
0.0,4584000000,-4.312343333e-01,-2.245913333e-01,-6.577000000e-03,-1.458700000e-02,-6.263446,-35.916964
0.0,4588000000,-1.006856667e-01,1.466020000e-01,-9.787666667e-03,9.162000000e-03,-14.999042,-37.453537
0.0,4592000000,3.284800000e-02,-3.767790000e-01,2.183666667e-02,1.395000000e-03,-8.445382,-33.198585
0.0,4596000000,-6.185810000e-01,-1.150186667e-01,-1.463600000e-02,-5.438000000e-03,-4.024455,-36.129942
0.0,4600000000,-2.670610000e-01,4.106373333e-01,9.393333333e-04,1.099033333e-02,-6.198890,-39.148173
0.0,4604000000,3.113986667e-01,2.310100000e-01,1.803100000e-02,-1.186900000e-02,-8.229406,-33.316233
0.0,4608000000,-3.419566667e-02,7.126000000e-03,-1.364066667e-02,5.616000000e-03,-29.135962,-36.623267
0.0,4612000000,1.933920000e-01,2.181726667e-01,5.193333333e-03,6.056666667e-03,-10.705822,-41.961748
0.0,4616000000,7.068226667e-01,-2.471083333e-01,7.614666667e-03,-1.634966667e-02,-2.512998,-34.877229
0.0,4620000000,-1.351970000e-01,-7.069666667e-01,-1.436333333e-02,1.158400000e-02,-2.856031,-34.678900
0.0,4624000000,-1.857970000e-01,1.116433333e-02,9.067333333e-03,2.319666667e-03,-14.603573,-40.575088
0.0,4628000000,1.958073333e-01,-7.433833333e-02,-5.310000000e-03,-1.326000000e-02,-13.578650,-36.903194
0.0,4632000000,-3.333566667e-01,-3.839453333e-01,-2.999000000e-03,1.682333333e-02,-5.874711,-35.345896
0.0,4636000000,-2.971800000e-01,2.511200000e-01,1.011466667e-02,-1.718000000e-03,-8.199395,-39.777449
0.0,4640000000,2.408846667e-01,1.882920000e-01,-9.266000000e-03,-9.995333333e-03,-10.292845,-37.310351
0.0,4644000000,-7.392366667e-02,-3.807133333e-01,9.411333333e-03,1.922000000e-02,-8.227309,-33.391520
0.0,4648000000,-3.220996667e-01,2.141483333e-01,4.090666667e-03,-1.169633333e-02,-8.250460,-38.137848
0.0,4652000000,2.036326667e-01,3.116326667e-01,-1.874833333e-02,2.556000000e-03,-8.582957,-34.460768
0.0,4656000000,9.906100000e-02,-3.088366667e-01,1.522800000e-02,1.654366667e-02,-9.780125,-32.962059
0.0,4660000000,-2.267170000e-01,1.667943333e-01,-2.624000000e-03,-9.330000000e-03,-11.011600,-40.271759
0.0,4664000000,3.417006667e-01,2.899886667e-01,-9.095333333e-03,5.386666667e-03,-6.971222,-39.517864
0.0,4668000000,5.554066667e-01,-5.574873333e-01,1.908366667e-02,5.725666667e-03,-2.081209,-34.012428
0.0,4672000000,-2.827246667e-01,-3.836813333e-01,-1.199566667e-02,-8.718000000e-03,-6.436976,-36.577757
0.0,4676000000,-2.362033333e-02,-3.281966667e-02,-2.078000000e-03,1.172566667e-02,-27.864688,-38.482952
0.0,4680000000,-3.858000000e-03,-5.061880000e-01,1.729766667e-02,-7.461000000e-03,-5.913511,-34.499236
0.0,4684000000,-5.827766667e-01,-5.585900000e-02,-1.332433333e-02,-1.233000000e-03,-4.650240,-37.470059
0.0,4688000000,-8.501000000e-02,3.267356667e-01,4.168666667e-03,8.924000000e-03,-9.431603,-40.131586
0.0,4692000000,2.660863333e-01,-7.470300000e-02,9.372333333e-03,-1.758000000e-02,-11.170063,-34.013221
0.0,4696000000,-4.057706667e-01,-5.524300000e-02,-1.514366667e-02,1.227033333e-02,-7.754627,-34.203402
0.0,4700000000,-8.605466667e-02,3.477670000e-01,7.761333333e-03,2.460333333e-03,-8.916133,-41.785419
0.0,4704000000,4.145166667e-01,1.019816667e-01,-2.521000000e-03,-1.360200000e-02,-7.393936,-37.181265
0.0,4708000000,-4.303300000e-02,-2.274790000e-01,-2.305333333e-03,1.906933333e-02,-12.708471,-34.330277
0.0,4712000000,3.815133333e-02,1.670720000e-01,8.622000000e-03,-3.896000000e-03,-15.321171,-40.480911
0.0,4716000000,6.308463333e-01,-2.164996667e-01,-6.776000000e-03,-7.075000000e-03,-3.517969,-40.178654
0.0,4720000000,-8.110433333e-02,-9.583526667e-01,4.839000000e-03,1.534933333e-02,-0.338499,-35.866701
0.0,4724000000,-4.684110000e-01,-2.691536667e-01,4.709666667e-03,-9.430666667e-03,-5.348365,-39.542139
0.0,4728000000,-1.590886667e-01,-6.527733333e-02,-1.115966667e-02,-4.365666667e-03,-15.291438,-38.428540
0.0,4732000000,-3.734176667e-01,-1.381290000e-01,9.014666667e-03,1.486133333e-02,-7.999149,-35.198156
0.0,4736000000,-2.408763333e-01,4.359913333e-01,-2.567666667e-03,-1.058200000e-02,-6.053560,-39.260192
0.0,4740000000,3.455220000e-01,3.692643333e-01,-9.000000000e-03,7.062666667e-03,-5.921986,-38.831225
0.0,4744000000,2.422803333e-01,-3.836940000e-01,1.905133333e-02,5.191000000e-03,-6.862997,-34.090470
0.0,4748000000,-2.747343333e-01,8.946766667e-02,-7.275000000e-03,-8.192333333e-03,-10.783998,-39.206742
0.0,4752000000,2.264950000e-01,3.303543333e-01,-2.391333333e-03,7.488000000e-03,-7.947037,-42.090915
0.0,4756000000,4.368450000e-01,-3.445940000e-01,1.665266667e-02,-7.471000000e-03,-5.092291,-34.773900
0.0,4760000000,-2.129356667e-01,-1.980710000e-01,-1.113900000e-02,-2.380333333e-03,-10.727646,-38.869150
0.0,4764000000,1.340006667e-01,5.463900000e-02,8.670000000e-04,7.777666667e-03,-16.789902,-42.129380
