angle_deg,freq_Hz,S11_re,S11_im,S21_re,S21_im,S11_dB,S21_dB
0.0,1000000000,-2.533400000e-05,-8.601000000e-05,2.860440000e-03,-2.083961000e-03,-80.947693,-49.022219
0.0,1020000000,-7.594700000e-05,-8.964000000e-06,-1.489718000e-03,1.725423000e-03,-82.329703,-52.843021
0.0,1040000000,5.372500000e-05,1.377130000e-04,3.305093000e-03,4.990780000e-04,-76.605238,-49.518411
0.0,1060000000,9.254500000e-05,2.050500000e-05,7.549875000e-03,-1.655675000e-03,-80.464804,-42.237212
0.0,1080000000,5.180500000e-05,-3.571600000e-05,-5.402224000e-03,-2.531135000e-03,-84.023716,-44.486639
0.0,1100000000,1.056200000e-05,-3.575000000e-05,2.386659000e-03,2.625092000e-03,-88.571045,-49.000692
0.0,1120000000,2.956300000e-05,1.517900000e-05,3.330143000e-03,-1.209594800e-02,-89.568842,-38.029903
0.0,1140000000,5.443100000e-05,-7.539000000e-06,4.096990000e-04,-5.350419000e-03,-85.200549,-45.406854
0.0,1160000000,4.688500000e-05,-4.171000000e-06,-3.708526000e-03,1.080484000e-03,-86.545086,-48.262134
0.0,1180000000,3.790000000e-05,8.342000000e-06,1.007026400e-02,9.156500000e-04,-88.221753,-39.903425
0.0,1200000000,6.586000000e-05,2.534600000e-05,2.321830000e-03,-4.026931000e-03,-83.027742,-46.654042
0.0,1220000000,7.738900000e-05,-2.944400000e-05,-7.566560000e-04,-3.916570000e-04,-81.639288,-61.391091
0.0,1240000000,7.728200000e-05,-6.145400000e-05,-4.102824000e-03,3.714757000e-03,-80.110354,-45.138164
0.0,1260000000,4.028000000e-05,-7.604000000e-05,9.471976000e-03,5.100817000e-03,-81.305007,-39.365290
0.0,1280000000,1.512000000e-05,-2.232900000e-05,-4.091331000e-03,4.416427000e-03,-91.383469,-44.407661
0.0,1300000000,7.283300000e-05,3.147500000e-05,-1.433595000e-03,-3.465709000e-03,-82.009821,-48.518191
0.0,1320000000,1.212930000e-04,-1.175200000e-05,9.517178000e-03,1.205853800e-02,-78.282706,-36.271156
0.0,1340000000,8.318800000e-05,-9.106100000e-05,7.343756000e-03,5.759850000e-04,-78.178037,-42.655001
0.0,1360000000,2.585800000e-05,-9.168200000e-05,2.983706000e-03,8.982300000e-04,-80.421904,-50.128112
0.0,1380000000,1.031500000e-05,-5.272500000e-05,-6.849210000e-03,1.758972600e-02,-85.396548,-34.481718
0.0,1400000000,9.362900000e-05,5.578000000e-06,9.668664000e-03,4.356925000e-03,-80.556405,-39.489793
0.0,1420000000,1.403190000e-04,-4.000000000e-05,4.856514000e-03,1.534937600e-02,-76.718361,-35.863833
0.0,1440000000,7.287400000e-05,-6.015100000e-05,4.140096000e-03,-9.624704000e-03,-80.492087,-39.594953
0.0,1460000000,7.850100000e-05,-1.124990000e-04,2.384856000e-03,2.088119600e-02,-77.254166,-33.548609
0.0,1480000000,6.013400000e-05,-8.428300000e-05,1.034205000e-03,-8.955874000e-03,-79.698165,-40.900310
0.0,1500000000,5.704900000e-05,-3.631600000e-05,1.189516000e-02,-6.381053000e-03,-83.397570,-37.394214
0.0,1520000000,4.215900000e-05,-4.069900000e-05,-1.761815000e-02,6.002383000e-03,-84.642263,-34.603873
0.0,1540000000,5.076100000e-05,-7.596900000e-05,1.666745600e-02,2.448554000e-03,-80.784192,-35.469884
0.0,1560000000,7.795300000e-05,-7.399000000e-05,2.462134000e-03,-4.329810000e-03,-79.373733,-46.053845
0.0,1580000000,1.062970000e-04,-8.994300000e-05,6.200700000e-05,7.038730000e-03,-77.124492,-43.049777
0.0,1600000000,1.228540000e-04,-1.210960000e-04,-1.182053400e-02,2.289719000e-03,-75.264058,-38.387283
0.0,1620000000,8.556000000e-05,-1.024090000e-04,8.666730000e-03,-1.278918000e-02,-77.493820,-36.221925
0.0,1640000000,2.381400000e-05,-1.112480000e-04,1.876489200e-02,-4.390309000e-03,-78.879575,-34.301628
0.0,1660000000,7.429000000e-06,-5.889500000e-05,9.206692000e-03,2.101580000e-04,-84.529874,-40.715665
0.0,1680000000,1.110860000e-04,-9.780700000e-05,-7.302840000e-04,1.251465000e-02,-76.594308,-38.036862
0.0,1700000000,1.371650000e-04,-1.143910000e-04,-3.068020000e-03,-1.762336200e-02,-74.962156,-34.948559
0.0,1720000000,8.927600000e-05,-1.433790000e-04,1.453169800e-02,-3.424654400e-02,-75.447326,-28.588652
0.0,1740000000,9.897300000e-05,-1.221110000e-04,2.702141200e-02,1.785039200e-02,-76.071844,-29.793101
0.0,1760000000,4.955300000e-05,-1.206970000e-04,1.565749600e-02,3.486610000e-04,-77.689571,-36.103401
0.0,1780000000,6.370100000e-05,-1.539710000e-04,2.565020000e-02,-7.158986000e-03,-75.565041,-31.492412
0.0,1800000000,7.297900000e-05,-1.285830000e-04,2.368704200e-02,-2.838635000e-02,-76.603593,-28.642757
0.0,1820000000,7.537900000e-05,-1.011980000e-04,4.159952800e-02,1.214771400e-02,-77.979743,-27.262841
0.0,1840000000,9.703200000e-05,-6.741900000e-05,1.906382200e-02,4.022682000e-03,-78.550981,-34.206609
0.0,1860000000,1.229190000e-04,-1.317180000e-04,1.811725000e-02,1.191307000e-02,-74.886687,-33.277580
0.0,1880000000,1.532040000e-04,-2.154280000e-04,6.620101600e-02,1.479760000e-04,-71.556428,-23.582685
0.0,1900000000,6.681300000e-05,-2.017680000e-04,-1.453915200e-02,-1.165982800e-02,-73.451085,-34.592470
0.0,1920000000,7.228000000e-05,-1.846110000e-04,5.148292400e-02,-1.583749200e-02,-74.055454,-25.374047
0.0,1940000000,-1.678800000e-05,-1.324210000e-04,4.915011600e-02,2.995969400e-02,-77.491616,-24.797370
0.0,1960000000,1.335720000e-04,-3.774800000e-05,2.954280400e-02,2.866851200e-02,-77.151996,-27.709172
0.0,1980000000,1.167360000e-04,-5.279800000e-05,-2.728497800e-02,4.827996800e-02,-77.847612,-25.120948
0.0,2000000000,1.818590000e-04,-2.370270000e-04,-5.149648800e-02,-4.933116400e-02,-70.493699,-22.936704
0.0,2020000000,1.285950000e-04,-2.220620000e-04,1.058238080e-01,2.032850400e-02,-71.814561,-19.350957
0.0,2040000000,-5.192360000e-04,-7.933400000e-05,9.034856800e-02,3.095243800e-02,-65.592484,-20.399615
0.0,2060000000,1.963300000e-04,-3.538310000e-04,8.714651200e-02,1.238762400e-01,-67.858403,-16.394097
0.0,2080000000,1.756880000e-04,-3.941250000e-04,1.469827680e-01,-1.294929200e-01,-67.300185,-14.159816
0.0,2100000000,2.346830000e-04,-4.393510000e-04,2.477497280e-01,3.922217920e-01,-66.053638,-6.671217
0.0,2120000000,2.928440000e-04,-2.484570000e-04,-1.966870080e-01,1.079321000e-03,-68.312419,-14.124356
0.0,2140000000,3.848690000e-04,-4.720220000e-04,2.573949760e-01,1.347910880e-01,-64.307093,-10.735505
0.0,2160000000,6.556110000e-04,-9.875910000e-04,-2.353482000e-03,7.390954400e-02,-58.522737,-22.621588
0.0,2180000000,2.332500000e-04,-1.224970000e-04,-1.272586600e-02,6.621170000e-03,-71.585712,-36.865809
0.0,2200000000,2.569560000e-04,-4.232130000e-04,-1.499681600e-01,6.321744000e-01,-66.105936,-3.745487
0.0,2220000000,1.492330000e-04,-4.583920000e-04,8.515472640e-01,4.363757200e-02,-66.337756,-1.384435
0.0,2240000000,1.883260000e-04,-4.981000000e-04,7.259117440e-01,5.732517760e-01,-65.473393,-0.677468
0.0,2260000000,1.775500000e-04,-5.359740000e-04,5.211151680e-01,1.583024000e+00,-64.964924,4.436581
0.0,2280000000,1.391520000e-04,-5.310640000e-04,-2.442966208e+00,2.190324304e+00,-65.208679,10.320384
0.0,2300000000,1.431230000e-04,-5.421220000e-04,2.041148424e+00,-3.583570560e-01,-65.025445,6.329335
0.0,2320000000,1.136110000e-04,-5.635040000e-04,-4.677005760e+00,1.069295760e+00,-64.809018,13.620634
0.0,2340000000,2.146890000e-04,-4.614830000e-04,6.016583680e-01,9.680278400e-01,-65.866031,1.136328
0.0,2360000000,1.315390000e-04,-5.963350000e-04,-1.595474944e+00,-7.727652480e-01,-64.283867,4.973038
0.0,2380000000,3.075140000e-04,-5.277980000e-04,-7.299512960e-01,-1.558756352e+00,-64.281333,4.716657
0.0,2400000000,8.538200000e-05,-5.133680000e-04,-3.226447200e-02,-7.796370560e-01,-65.672923,-2.154719
0.0,2420000000,4.158800000e-05,-5.150960000e-04,2.631105440e-01,8.781608320e-01,-65.734018,-0.755173
0.0,2440000000,5.524400000e-05,-4.983580000e-04,-1.064606188e+00,-5.739049600e-01,-65.996130,1.651711
0.0,2460000000,6.743400000e-05,-5.150140000e-04,-1.380427200e-02,3.469043840e-01,-65.689794,-9.188933
0.0,2480000000,7.100900000e-05,-4.476560000e-04,-5.433985280e-01,-1.252955760e-01,-66.873189,-5.072662
0.0,2500000000,-4.007020000e-04,-2.252370000e-04,6.877684480e-01,-1.996994000e-03,-66.751132,-3.251118
0.0,2520000000,6.901840000e-04,-1.944298000e-03,6.395364000e-02,-9.177052800e-01,-53.709322,-0.724895
0.0,2540000000,3.110110000e-04,-4.773090000e-04,1.609844000e-01,-1.327335584e+00,-64.887161,2.523033
0.0,2560000000,4.517600000e-05,-5.047430000e-04,2.131944800e-01,7.918826880e-01,-65.903942,-1.722883
0.0,2580000000,-6.138900000e-05,-5.228870000e-04,-1.289522480e-01,-4.298059840e-01,-65.572390,-6.960228
0.0,2600000000,4.820600000e-05,-5.098360000e-04,1.421568160e-01,-5.706483200e-01,-65.812736,-4.611146
0.0,2620000000,2.904700000e-05,-4.560020000e-04,-2.056476000e-03,-1.323823800e-02,-66.803079,-37.459838
0.0,2640000000,2.654100000e-05,-1.474180000e-04,8.632780000e-03,-4.609019200e-02,-76.490451,-26.578082
0.0,2660000000,2.040000000e-07,-2.173160000e-04,3.006147800e-02,-2.443457800e-02,-73.258162,-28.236942
0.0,2680000000,-1.217840000e-04,-1.552700000e-04,-1.866582000e-02,-2.865381400e-02,-74.096028,-29.320169
0.0,2700000000,1.811900000e-05,-2.137220000e-04,7.938514400e-02,-1.296423360e-01,-73.371913,-16.362163
0.0,2720000000,4.988200000e-05,-1.010930000e-04,1.189532320e-01,6.410685000e-03,-78.959225,-18.479880
0.0,2740000000,-1.384330000e-04,3.401400000e-05,6.649300400e-02,5.550127200e-02,-76.920625,-21.248397
0.0,2760000000,-1.660930000e-04,-5.967900000e-05,7.853969600e-02,-4.324658800e-02,-75.065633,-20.948114
0.0,2780000000,3.542500000e-05,-1.859800000e-05,-2.617500000e-02,-4.250067200e-02,-87.956585,-26.035500
0.0,2800000000,-4.498600000e-05,5.073800000e-05,-6.392565000e-03,-2.225359600e-02,-83.374230,-32.707644
0.0,2820000000,-1.607300000e-05,-1.012680000e-04,-1.966324200e-02,-2.352398600e-02,-79.782507,-30.268624
0.0,2840000000,5.292300000e-05,-1.369250000e-04,-3.821186000e-02,-5.898638400e-02,-76.665668,-23.063135
0.0,2860000000,5.330900000e-05,-1.674470000e-04,4.403153600e-02,-1.105463040e-01,-75.103178,-18.489594
0.0,2880000000,-4.229300000e-05,-2.047690000e-04,-1.145385200e-01,6.922119000e-03,-73.593294,-18.805136
0.0,2900000000,-9.726000000e-05,-2.554250000e-04,-1.600898080e-01,1.129293400e-02,-71.266710,-15.891169
0.0,2920000000,-1.124560000e-04,-2.045900000e-04,-6.306248000e-02,-3.272912600e-02,-72.635762,-22.968745
0.0,2940000000,-2.602550000e-04,-8.801400000e-05,-3.503925200e-02,1.024536800e-02,-71.221731,-28.752621
0.0,2960000000,-1.248700000e-04,-6.075600000e-05,-2.471244400e-02,-9.693168800e-02,-77.148072,-19.997197
0.0,2980000000,-6.380000000e-07,2.643600000e-05,-5.810112800e-02,-7.960851200e-02,-91.553556,-20.126352
0.0,3000000000,8.753900000e-05,-4.141800000e-05,5.254729200e-02,-9.694707200e-02,-80.278654,-19.150681
5.0,1000000000,-2.853000000e-05,-8.431900000e-05,2.427238000e-03,-3.363452000e-03,-81.010745,-47.643632
5.0,1020000000,-6.904400000e-05,-7.776000000e-06,2.927365000e-03,1.657842000e-03,-83.162741,-49.462339
5.0,1040000000,2.698200000e-05,1.043940000e-04,-4.865929000e-03,-1.589570000e-04,-79.345646,-46.252053
5.0,1060000000,8.945300000e-05,1.207300000e-05,5.671749000e-03,-8.015100000e-05,-80.889705,-44.924793
5.0,1080000000,5.134600000e-05,-3.612000000e-05,-6.520026000e-03,-2.484535000e-03,-84.043863,-43.126168
5.0,1100000000,3.867000000e-06,-3.774500000e-05,5.863855000e-03,6.413056000e-03,-88.417465,-41.219836
5.0,1120000000,3.138400000e-05,1.780400000e-05,-8.339360000e-04,-1.204557200e-02,-88.854097,-38.362685
5.0,1140000000,5.386300000e-05,-9.362000000e-06,1.959367000e-03,-4.818574000e-03,-85.244930,-45.677079
5.0,1160000000,5.196600000e-05,-2.817000000e-06,-4.431982000e-03,1.964542000e-03,-85.672871,-46.288972
5.0,1180000000,5.189600000e-05,1.297800000e-05,1.927020000e-03,-6.077371000e-03,-85.433875,-43.909625
5.0,1200000000,7.243700000e-05,1.260100000e-05,-3.236091000e-03,-1.839319000e-03,-82.671317,-48.583816
5.0,1220000000,7.297000000e-05,-2.367700000e-05,-3.022166000e-03,1.288668000e-03,-82.302372,-49.668114
5.0,1240000000,6.360800000e-05,-5.871500000e-05,5.583240000e-04,5.685958000e-03,-81.253194,-44.862253
5.0,1260000000,4.165400000e-05,-7.602400000e-05,2.560071000e-03,-5.448272000e-03,-81.240881,-44.408402
5.0,1280000000,1.411900000e-05,-3.222000000e-05,2.215366000e-03,8.108400000e-04,-89.074637,-52.545108
5.0,1300000000,6.577800000e-05,4.148100000e-05,-9.439880000e-04,-3.118339000e-03,-82.184300,-49.740738
5.0,1320000000,1.253200000e-04,-8.653000000e-06,9.917078000e-03,7.399042000e-03,-78.018936,-38.150411
5.0,1340000000,7.871100000e-05,-9.101200000e-05,-5.452922000e-03,-2.914275000e-03,-78.392733,-44.176257
5.0,1360000000,3.489600000e-05,-1.056170000e-04,6.316882000e-03,-3.804871000e-03,-79.075362,-42.645605
5.0,1380000000,8.182000000e-06,-4.717100000e-05,-5.668426000e-03,2.072882600e-02,-86.397762,-33.355317
5.0,1400000000,7.308500000e-05,-1.097500000e-05,6.598676000e-03,-8.429368000e-03,-82.626588,-39.408276
5.0,1420000000,1.321470000e-04,-3.241000000e-05,-3.652006000e-03,1.341243800e-02,-77.325176,-37.139240
5.0,1440000000,7.881000000e-05,-6.212200000e-05,2.382710000e-03,-8.900506000e-03,-79.969637,-40.711112
5.0,1460000000,-4.986800000e-05,-1.180750000e-04,3.873783000e-03,1.715674600e-02,-77.844015,-35.095357
5.0,1480000000,5.576700000e-05,-8.015100000e-05,1.602126200e-02,-4.189432000e-03,-80.207184,-35.618816
5.0,1500000000,6.347900000e-05,-2.944700000e-05,1.263369000e-02,2.780923000e-03,-83.100957,-37.763907
5.0,1520000000,4.370400000e-05,-4.686800000e-05,1.776339200e-02,-1.594678200e-02,-83.865124,-32.442486
5.0,1540000000,5.447600000e-05,-7.857000000e-05,1.484892800e-02,1.334108000e-02,-80.390120,-33.995988
5.0,1560000000,8.163700000e-05,-8.014700000e-05,-8.989560000e-03,-6.558539000e-03,-78.831220,-39.071860
5.0,1580000000,1.016400000e-04,-8.530800000e-05,6.837501000e-03,1.826765000e-03,-77.542864,-43.002621
5.0,1600000000,1.236570000e-04,-8.352400000e-05,7.981580000e-03,-1.629757800e-02,-76.523322,-34.823863
5.0,1620000000,5.155600000e-05,-1.293570000e-04,2.208995400e-02,2.065220200e-02,-77.123941,-30.388260
5.0,1640000000,1.296000000e-05,-1.149380000e-04,1.999808800e-02,6.029789000e-03,-78.735859,-33.602328
5.0,1660000000,2.268900000e-05,-1.138510000e-04,8.241944000e-03,1.897100000e-05,-78.704119,-41.679384
5.0,1680000000,1.153920000e-04,-1.004240000e-04,2.507540000e-04,8.763250000e-04,-76.307787,-60.804915
5.0,1700000000,1.293290000e-04,-1.061420000e-04,4.181609600e-02,-6.166641000e-03,-75.529643,-27.479694
5.0,1720000000,1.373320000e-04,-1.336090000e-04,4.144443600e-02,2.416161400e-02,-74.351985,-26.380032
5.0,1740000000,5.881500000e-05,-1.597100000e-04,1.529043400e-02,-1.227637400e-02,-75.381042,-34.150961
5.0,1760000000,6.055000000e-05,-1.226290000e-04,1.655101200e-02,-1.473848000e-03,-77.280615,-35.589207
5.0,1780000000,4.750400000e-05,-1.465570000e-04,1.257092400e-02,4.903298000e-03,-76.246001,-37.397605
5.0,1800000000,9.322900000e-05,-1.267100000e-04,5.293873200e-02,1.089244400e-02,-76.064762,-25.344454
5.0,1820000000,4.579000000e-05,-1.254370000e-04,1.981976200e-02,-2.375220800e-02,-77.488203,-30.190924
5.0,1840000000,1.057150000e-04,-1.075110000e-04,3.174389200e-02,-1.563607000e-03,-76.433189,-29.956272
5.0,1860000000,1.250510000e-04,-1.361460000e-04,1.819979400e-02,7.948350000e-03,-74.663107,-34.040534
5.0,1880000000,1.277950000e-04,-1.863900000e-04,-1.659581400e-02,-3.492258000e-02,-72.918104,-28.253566
5.0,1900000000,1.167460000e-04,-2.239990000e-04,7.370528800e-02,9.094332000e-03,-71.951441,-22.584406
5.0,1920000000,6.071800000e-05,-1.939880000e-04,3.423937600e-02,-2.261203000e-02,-73.838605,-27.737511
5.0,1940000000,-4.339400000e-05,-1.128140000e-04,5.095514000e-02,2.545851400e-02,-78.353487,-24.888439
5.0,1960000000,1.279710000e-04,-1.657000000e-06,3.454748800e-02,1.916615400e-02,-77.857041,-28.066332
5.0,1980000000,2.016680000e-04,-1.154390000e-04,6.085246000e-02,7.143104800e-02,-72.676372,-20.552501
5.0,2000000000,1.851030000e-04,-2.586300000e-04,-3.688936800e-02,-6.029338800e-02,-69.950230,-23.013673
5.0,2020000000,1.960560000e-04,-2.041950000e-04,1.000928320e-01,-2.147905600e-02,-70.961856,-19.796418
5.0,2040000000,1.393460000e-04,-1.113546000e-03,6.626226000e-03,1.036163120e-01,-58.998356,-19.673713
5.0,2060000000,2.361940000e-04,-3.622940000e-04,8.852532800e-02,-1.081988600e-02,-67.280549,-20.994251
5.0,2080000000,1.760620000e-04,-4.116240000e-04,3.364235840e-01,-7.041701600e-02,-66.980326,-9.276053
5.0,2100000000,2.673350000e-04,-3.958930000e-04,-6.350065600e-02,4.027422080e-01,-66.416857,-7.792811
5.0,2120000000,2.806860000e-04,-4.519610000e-04,1.853591520e-01,3.967742720e-01,-65.481317,-7.171789
5.0,2140000000,4.052260000e-04,-4.584130000e-04,2.150639520e-01,2.798325120e-01,-64.267215,-9.046258
5.0,2160000000,6.577930000e-04,-7.859280000e-04,-1.439826560e-01,2.226009920e-01,-59.786559,-11.531546
5.0,2180000000,3.471010000e-04,-4.377950000e-04,3.782768320e-01,2.465870080e-01,-65.056456,-6.905859
5.0,2200000000,1.653270000e-04,-4.402650000e-04,6.914861440e-01,2.541114720e-01,-66.552811,-2.654196
5.0,2220000000,1.546250000e-04,-4.574820000e-04,7.165868800e-01,-4.771296640e-01,-66.322739,-1.300942
5.0,2240000000,1.792530000e-04,-5.143750000e-04,9.182167040e-01,9.171205760e-01,-65.276630,2.264019
5.0,2260000000,1.743470000e-04,-5.236700000e-04,5.779619200e-01,7.482471680e-01,-65.162314,-0.487044
5.0,2280000000,1.729000000e-04,-5.341890000e-04,1.777349952e+00,1.459297370e+01,-65.013417,23.346826
5.0,2300000000,1.849790000e-04,-5.785170000e-04,2.219707248e+00,-1.406779168e+00,-64.330923,8.392346
5.0,2320000000,1.329500000e-05,-5.381760000e-04,-2.694606800e-02,-2.747622976e+00,-65.378864,8.779560
5.0,2340000000,1.930290000e-04,-4.362700000e-04,7.098573440e-01,8.077155840e-01,-66.428436,0.630712
5.0,2360000000,4.301200000e-05,-4.979830000e-04,-6.075176960e-01,2.582901800e-02,-66.023431,-4.320978
5.0,2380000000,2.012780000e-04,-4.860050000e-04,-5.861205760e-01,3.148773120e-01,-65.579693,-3.539051
5.0,2400000000,6.577900000e-05,-4.126580000e-04,8.103639040e-01,-2.731976000e-01,-67.579222,-1.358886
5.0,2420000000,7.561100000e-05,-5.299480000e-04,-1.128205064e+00,-3.208838400e-01,-65.427815,1.385594
5.0,2440000000,6.999600000e-05,-5.245350000e-04,1.907358400e-01,5.053116800e-01,-65.527855,-5.350337
5.0,2460000000,9.617900000e-05,-4.599940000e-04,-7.732615680e-01,3.099950080e-01,-66.559127,-1.586215
5.0,2480000000,2.105500000e-05,-5.768030000e-04,-1.804515040e-01,-2.263082240e-01,-64.773667,-10.768692
5.0,2500000000,-3.476840000e-04,-8.285100000e-05,-2.539494560e-01,-1.968308960e-01,-68.936444,-9.861826
5.0,2520000000,1.792860000e-04,-3.306690000e-04,-7.302758400e-01,-1.062618732e+00,-68.492882,2.207516
5.0,2540000000,7.793300000e-05,-4.889880000e-04,-5.647543040e-01,3.797955520e-01,-66.105100,-3.342389
5.0,2560000000,7.374500000e-05,-4.896500000e-04,1.457210240e-01,4.169685120e-01,-66.104876,-7.097486
5.0,2580000000,2.332700000e-05,-5.060380000e-04,2.861205440e-01,-5.686000000e-02,-65.907119,-10.700805
5.0,2600000000,-6.507710000e-04,-6.310800000e-05,3.688464640e-01,-1.258026640e-01,-63.690786,-8.185165
5.0,2620000000,-4.327890000e-04,-4.399040000e-04,4.574647600e-02,-2.603760400e-02,-64.192781,-25.574110
5.0,2640000000,-5.718800000e-05,-1.198490000e-04,2.315685800e-02,7.724694000e-03,-77.536430,-32.248186
5.0,2660000000,-2.819000000e-05,-2.277210000e-04,4.161716800e-02,-2.386285400e-02,-72.785890,-26.380033
5.0,2680000000,-9.033800000e-05,-1.234270000e-04,-5.352228000e-03,1.191118000e-02,-76.308736,-37.682182
5.0,2700000000,6.981200000e-05,-1.543640000e-04,1.368534240e-01,-6.189622000e-03,-75.420884,-17.266012
5.0,2720000000,-1.189720000e-04,-2.250830000e-04,-1.255285800e-02,-1.031224960e-01,-71.883131,-19.669052
5.0,2740000000,-9.734100000e-05,1.411300000e-05,5.172202400e-02,4.783639600e-02,-80.143738,-23.042130
5.0,2760000000,-1.851380000e-04,-7.357400000e-05,3.555187600e-02,-6.379583600e-02,-74.013275,-22.729596
5.0,2780000000,-4.098900000e-05,-1.371110000e-04,6.257361000e-03,7.531511000e-03,-76.886801,-40.182800
5.0,2800000000,8.158900000e-05,3.425700000e-05,3.414793200e-02,-8.639422400e-02,-81.062212,-20.639870
5.0,2820000000,1.789600000e-05,-1.230050000e-04,-3.237594000e-03,-4.732610400e-02,-78.110576,-26.477707
5.0,2840000000,1.123780000e-04,-1.364830000e-04,1.734927000e-02,4.369112800e-02,-75.050607,-26.556251
