angle_deg,freq_Hz,S11_re,S11_im,S21_re,S21_im,S11_dB,S21_dB
0.0,1000000000,-9.178400000e-05,-7.751000000e-05,4.316992000e-03,2.298508000e-03,-78.406704,-46.212468
0.0,1020000000,-9.164000000e-05,-7.768300000e-05,3.213074000e-03,-4.531578000e-03,-78.406573,-45.106175
0.0,1040000000,-9.159700000e-05,-7.763200000e-05,-7.732448000e-03,-4.827850000e-04,-78.411330,-42.216763
0.0,1060000000,-9.147200000e-05,-7.728700000e-05,1.215339000e-03,9.434550000e-04,-78.434385,-56.257731
0.0,1080000000,-9.181100000e-05,-7.729800000e-05,5.529805000e-03,-3.543296000e-03,-78.415096,-43.651834
0.0,1100000000,-9.212700000e-05,-7.775200000e-05,-9.257402000e-03,-6.889900000e-05,-78.376520,-40.669977
0.0,1120000000,-9.200900000e-05,-7.775000000e-05,1.063457000e-03,2.629216000e-03,-78.383111,-50.945432
0.0,1140000000,-9.145600000e-05,-7.717700000e-05,-1.728953000e-03,-3.417599000e-03,-78.440421,-48.335918
0.0,1160000000,-9.167000000e-05,-7.750100000e-05,5.273341000e-03,7.426700000e-04,-78.413422,-45.472986
0.0,1180000000,-9.180000000e-05,-7.747000000e-05,-3.580895000e-03,4.457655000e-03,-78.407686,-44.855386
0.0,1200000000,-9.168900000e-05,-7.807500000e-05,-8.500182000e-03,9.403310000e-04,-78.385548,-41.358610
0.0,1220000000,-9.175300000e-05,-7.833000000e-05,-9.090170000e-04,1.060854600e-02,-78.370116,-39.455112
0.0,1240000000,-9.242300000e-05,-7.785300000e-05,9.365628000e-03,-7.683177000e-03,-78.355549,-38.334331
0.0,1260000000,-9.187900000e-05,-7.745500000e-05,-1.047020800e-02,-8.263705000e-03,-78.404019,-37.497897
0.0,1280000000,-9.123200000e-05,-7.778000000e-05,-1.193737400e-02,2.523511000e-03,-78.424524,-38.271957
0.0,1300000000,-9.194900000e-05,-7.689100000e-05,1.136578800e-02,1.141381200e-02,-78.426386,-35.859359
0.0,1320000000,-9.151800000e-05,-7.771200000e-05,3.598394000e-03,4.226783000e-03,-78.411944,-45.112500
0.0,1340000000,-9.242800000e-05,-7.753300000e-05,6.941130000e-04,3.467607000e-03,-78.370086,-49.028784
0.0,1360000000,-9.151600000e-05,-7.768800000e-05,4.651820000e-04,2.366873600e-02,-78.413178,-32.514821
0.0,1380000000,-9.190900000e-05,-7.825000000e-05,1.605057000e-02,3.045986000e-03,-78.365307,-35.736533
0.0,1400000000,-9.131300000e-05,-7.895200000e-05,3.157779000e-03,1.800709800e-02,-78.364963,-34.759583
0.0,1420000000,-9.161700000e-05,-7.725800000e-05,1.126379200e-02,-7.514850000e-03,-78.427708,-37.367286
0.0,1440000000,-9.140000000e-05,-7.741200000e-05,1.086805600e-02,1.939584600e-02,-78.432517,-33.059975
0.0,1460000000,-8.987800000e-05,-7.467700000e-05,1.216870800e-02,-6.845443000e-03,-78.647175,-37.101045
0.0,1480000000,-9.169000000e-05,-7.781700000e-05,1.696425200e-02,-1.011836200e-02,-78.397554,-34.087494
0.0,1500000000,-8.791100000e-05,-7.686400000e-05,-1.689638600e-02,-5.258616000e-03,-78.652997,-35.042602
0.0,1520000000,-9.115100000e-05,-7.662200000e-05,-1.441134400e-02,1.215918600e-02,-78.483411,-34.491205
0.0,1540000000,-9.227300000e-05,-7.703200000e-05,2.061023400e-02,-1.476009600e-02,-78.401852,-31.920308
0.0,1560000000,-9.302200000e-05,-7.728000000e-05,1.732901800e-02,1.289664400e-02,-78.348955,-33.310382
0.0,1580000000,-9.188900000e-05,-7.821800000e-05,-3.232507000e-03,3.497993000e-03,-78.367896,-46.442601
0.0,1600000000,-9.089300000e-05,-7.756900000e-05,1.098318000e-02,-1.413064600e-02,-78.453178,-34.944357
0.0,1620000000,-9.226600000e-05,-7.761000000e-05,-1.134368000e-03,2.147551400e-02,-78.375453,-33.349028
0.0,1640000000,-9.309300000e-05,-8.094200000e-05,1.760636200e-02,-1.549173000e-02,-78.176449,-32.596549
0.0,1660000000,-9.248700000e-05,-7.768200000e-05,8.971790000e-03,-7.863080000e-04,-78.359942,-40.909187
0.0,1680000000,-9.336600000e-05,-8.083000000e-05,-8.567260000e-03,-4.373644000e-03,-78.167103,-40.337329
0.0,1700000000,-8.868100000e-05,-7.934800000e-05,7.862075000e-03,-2.979407000e-02,-78.489237,-30.225056
0.0,1720000000,-9.331200000e-05,-7.725200000e-05,1.120437000e-03,1.377950200e-02,-78.334219,-37.186710
0.0,1740000000,-9.547200000e-05,-7.815200000e-05,1.669741200e-02,1.067605200e-02,-78.175101,-34.058488
0.0,1760000000,-9.280200000e-05,-7.923400000e-05,2.547363400e-02,-1.611977800e-02,-78.270984,-30.415540
0.0,1780000000,-8.997600000e-05,-7.485100000e-05,4.636239600e-02,9.916568000e-03,-78.633317,-26.482404
0.0,1800000000,-8.888400000e-05,-7.699800000e-05,3.111768800e-02,3.445756800e-02,-78.592074,-26.664249
0.0,1820000000,-9.047200000e-05,-8.091900000e-05,6.215422800e-02,1.237572000e-02,-78.317068,-23.961732
0.0,1840000000,-8.722400000e-05,-8.043600000e-05,-8.825756000e-03,-6.805205000e-03,-78.514598,-39.058617
0.0,1860000000,-8.564300000e-05,-8.974200000e-05,2.918585800e-02,-1.761055600e-02,-78.128079,-29.348141
0.0,1880000000,-9.766400000e-05,-7.184800000e-05,6.948653600e-02,-6.007448400e-02,-78.326711,-20.737954
0.0,1900000000,-8.555200000e-05,-7.004200000e-05,6.859005600e-02,-1.025391280e-01,-79.127502,-18.176176
0.0,1920000000,-9.762200000e-05,-8.471300000e-05,-1.829015800e-02,7.468993000e-03,-77.771185,-34.085839
0.0,1940000000,-8.157000000e-05,-8.106700000e-05,5.452924400e-02,4.187265200e-02,-78.785871,-23.254367
0.0,1960000000,-8.007500000e-05,-8.516000000e-05,6.034217600e-02,4.929693600e-02,-78.644148,-22.167136
0.0,1980000000,-1.019650000e-04,-8.035300000e-05,-8.009750400e-02,1.921774800e-02,-77.733108,-21.684545
0.0,2000000000,-9.947100000e-05,-9.081900000e-05,-1.870849800e-02,2.074465760e-01,-77.413012,-13.626695
0.0,2020000000,-9.671600000e-05,-7.678100000e-05,2.298316800e-01,8.464434400e-02,-78.167499,-12.219409
0.0,2040000000,-8.254200000e-05,-6.472400000e-05,2.049089760e-01,-1.135544560e-01,-79.585134,-12.605677
0.0,2060000000,-1.092590000e-04,-8.440700000e-05,-1.799766560e-01,-1.770601760e-01,-77.198299,-11.955750
0.0,2080000000,-6.771600000e-05,-7.283700000e-05,6.005792400e-02,-3.668960640e-01,-80.047736,-8.594301
0.0,2100000000,-8.548400000e-05,-8.756200000e-05,-1.038530800e-01,-1.916849600e-01,-78.246442,-13.230451
0.0,2120000000,-3.189600000e-05,-6.611700000e-05,3.131509760e-01,-1.653584480e-01,-82.685069,-9.016784
0.0,2140000000,-8.886100000e-05,-7.041100000e-05,1.174647400e-02,-8.474430000e-04,-78.909622,-38.579304
0.0,2160000000,-1.163960000e-04,-5.144900000e-05,2.100612000e-01,-2.211985280e-01,-77.906183,-10.312626
0.0,2180000000,-3.601500000e-05,-1.560700000e-05,-1.479301600e-01,-9.007472000e-02,-88.122936,-15.229253
0.0,2200000000,-8.582300000e-05,-8.320700000e-05,-2.208129000e-03,3.063822720e-01,-78.449984,-10.274502
0.0,2220000000,-5.206800000e-05,-7.611300000e-05,-2.642934880e-01,9.587077600e-02,-80.703632,-11.021407
0.0,2240000000,-8.669300000e-05,-9.025800000e-05,-6.735925600e-02,9.287236000e-02,-78.051477,-18.806601
0.0,2260000000,-1.064910000e-04,-1.278680000e-04,2.069314240e-01,-1.596164000e-01,-75.576683,-11.655920
0.0,2280000000,-1.430150000e-04,-1.117000000e-04,8.102747000e-03,-6.353391600e-02,-74.824059,-23.869818
0.0,2300000000,-1.471380000e-04,-1.079370000e-04,4.308624320e-01,-5.687746400e-02,-74.775559,-7.238198
0.0,2320000000,-1.047730000e-04,-8.763200000e-05,-2.390669760e-01,-1.553272320e-01,-77.291640,-10.900186
0.0,2340000000,-1.344080000e-04,-1.203360000e-04,1.910915840e-01,-2.405319520e-01,-74.874989,-10.251586
0.0,2360000000,-1.324680000e-04,-3.068300000e-05,8.033958000e-03,-1.171238240e-01,-77.330815,-18.606709
0.0,2380000000,-7.311500000e-05,-3.004900000e-05,6.815687200e-02,-4.667139000e-03,-82.042072,-23.309490
0.0,2400000000,-7.864100000e-05,-7.102200000e-05,1.390825920e-01,-2.195644640e-01,-79.496770,-11.703584
0.0,2420000000,-7.246500000e-05,-6.141400000e-05,3.261444800e-01,2.099992640e-01,-80.446560,-8.225503
0.0,2440000000,-6.715600000e-05,-5.687400000e-05,-1.238882600e-02,3.077374720e-01,-81.110021,-10.229360
0.0,2460000000,-1.182840000e-04,-5.795400000e-05,1.138073920e-01,1.843994880e-01,-77.607063,-13.283154
0.0,2480000000,-9.829200000e-05,-3.400000000e-05,1.443528480e-01,-1.459545120e-01,-79.658804,-13.753007
0.0,2500000000,-7.588700000e-05,-9.750400000e-05,2.907238720e-01,-2.720103360e-01,-78.162785,-7.999434
0.0,2520000000,-8.049700000e-05,-7.016900000e-05,3.518959680e-01,-1.441189440e-01,-79.429635,-8.398286
0.0,2540000000,-1.553540000e-04,-1.076900000e-04,5.125490560e-01,8.689509600e-02,-74.469427,-5.682226
0.0,2560000000,-1.092420000e-04,-9.018200000e-05,4.422554400e-02,-2.502596960e-01,-76.975260,-11.898629
0.0,2580000000,-5.470100000e-05,-1.089450000e-04,-1.092337440e-01,-2.966403200e-01,-78.279458,-10.003150
0.0,2600000000,-8.826200000e-05,-1.736170000e-04,1.164604400e-01,-1.574672960e-01,-74.209823,-14.161329
0.0,2620000000,-1.023000000e-04,-7.535500000e-05,9.420300000e-03,2.470040400e-02,-77.919978,-31.556148
0.0,2640000000,-7.754900000e-05,-1.247820000e-04,5.997941600e-02,-3.144708200e-02,-76.658601,-23.385234
0.0,2660000000,-7.410000000e-05,-1.348460000e-04,3.002997800e-02,2.069004200e-02,-76.257237,-28.761884
0.0,2680000000,-1.239660000e-04,-3.421300000e-05,3.328880200e-02,-6.828361000e-03,-77.815144,-29.375042
0.0,2700000000,-1.763110000e-04,-1.087930000e-04,1.144519200e-01,8.252116000e-02,-73.673253,-17.009509
0.0,2720000000,-7.229300000e-05,-8.315300000e-05,9.907527200e-02,-1.411728000e-01,-79.157563,-15.265763
0.0,2740000000,-1.021300000e-04,-1.477910000e-04,-2.206286600e-02,4.819648800e-02,-74.911645,-25.513445
0.0,2760000000,2.688000000e-05,-1.170870000e-04,1.207284960e-01,-5.613412000e-02,-78.406765,-17.513792
0.0,2780000000,-1.209390000e-04,-1.312150000e-04,1.020977280e-01,-9.580222400e-02,-74.969776,-17.076993
0.0,2800000000,-1.352440000e-04,-6.012300000e-05,6.246756000e-02,8.439574000e-03,-76.594426,-24.008353
0.0,2820000000,-6.328500000e-05,3.024800000e-05,1.136102240e-01,-4.779212800e-02,-83.080408,-18.184030
0.0,2840000000,-2.346020000e-04,2.409100000e-05,7.574280000e-02,8.749894400e-02,-72.547809,-18.731209
0.0,2860000000,-6.918800000e-05,1.107800000e-05,-1.022087920e-01,-9.822566400e-02,-83.089449,-16.969138
0.0,2880000000,-5.005900000e-05,-7.794800000e-05,1.152751280e-01,-1.340684720e-01,-80.664219,-15.049734
0.0,2900000000,-6.966100000e-05,-1.048060000e-04,4.246450000e-02,7.551562000e-03,-78.003284,-27.304264
0.0,2920000000,-6.138700000e-05,-5.064600000e-05,8.566868000e-02,-9.947380000e-04,-81.983644,-21.342973
0.0,2940000000,-9.091800000e-05,-1.351920000e-04,1.830114400e-02,-1.064245440e-01,-75.760507,-19.332599
0.0,2960000000,-1.074930000e-04,-2.404000000e-05,6.936939200e-02,-6.995785600e-02,-79.160437,-20.129501
0.0,2980000000,-1.930190000e-04,-1.434880000e-04,9.395332000e-02,-1.535868000e-02,-72.377331,-20.427225
0.0,3000000000,-1.939030000e-04,-1.073510000e-04,1.231621440e-01,-4.062497200e-02,-73.087186,-17.741920
5.0,1000000000,-9.189500000e-05,-7.744000000e-05,2.648443000e-03,5.935300000e-04,-78.403833,-51.327371
5.0,1020000000,-9.177800000e-05,-7.743700000e-05,1.282902000e-03,-2.299126000e-03,-78.410441,-51.591529
5.0,1040000000,-9.189100000e-05,-7.747600000e-05,-3.239068000e-03,6.381625000e-03,-78.402378,-42.905884
5.0,1060000000,-9.220400000e-05,-7.737500000e-05,3.394350000e-04,8.789370000e-04,-78.389775,-60.517111
5.0,1080000000,-9.161700000e-05,-7.747100000e-05,1.978454000e-03,-3.965214000e-03,-78.417753,-47.069204
5.0,1100000000,-9.200400000e-05,-7.736300000e-05,-4.610063000e-03,-3.281061000e-03,-78.401391,-44.946052
5.0,1120000000,-9.173300000e-05,-7.729300000e-05,-1.447873000e-03,2.158591000e-03,-78.419648,-51.703199
5.0,1140000000,-9.209600000e-05,-7.669700000e-05,-5.241070000e-04,9.552020000e-04,-78.427215,-59.255131
5.0,1160000000,-9.137000000e-05,-7.760000000e-05,8.033797000e-03,-3.580920000e-03,-78.425361,-41.114561
5.0,1180000000,-9.203500000e-05,-7.776000000e-05,-3.289714000e-03,-4.104264000e-03,-78.381214,-45.580348
5.0,1200000000,-9.221800000e-05,-7.768800000e-05,-7.549588000e-03,-2.940010000e-04,-78.374480,-42.434954
5.0,1220000000,-9.138800000e-05,-7.795500000e-05,-1.620364000e-03,1.325123400e-02,-78.407713,-37.490417
5.0,1240000000,-9.212000000e-05,-7.721400000e-05,1.171200000e-03,-2.947317000e-03,-78.401894,-49.974717
5.0,1260000000,-9.127900000e-05,-7.766200000e-05,-3.081299000e-03,3.759651000e-03,-78.427475,-46.265477
5.0,1280000000,-9.172100000e-05,-7.750300000e-05,-1.031660000e-02,-2.166201000e-03,-78.410511,-39.541895
5.0,1300000000,-9.184300000e-05,-7.747900000e-05,1.298906400e-02,7.064522000e-03,-78.404890,-36.603036
5.0,1320000000,-9.213600000e-05,-7.813800000e-05,3.614133000e-03,9.321424000e-03,-78.358081,-40.002133
5.0,1340000000,-9.138300000e-05,-7.782700000e-05,3.213328000e-03,-8.979340000e-04,-78.413995,-49.534361
5.0,1360000000,-9.298800000e-05,-7.615700000e-05,1.105610000e-03,1.834048800e-02,-78.402326,-34.716029
5.0,1380000000,-9.119600000e-05,-7.719600000e-05,1.110223400e-02,-1.565591000e-03,-78.453955,-39.006278
5.0,1400000000,-9.151100000e-05,-7.882800000e-05,-2.333407000e-03,9.030998000e-03,-78.360008,-40.604622
5.0,1420000000,-9.190600000e-05,-7.809800000e-05,7.584450000e-04,-1.802335200e-02,-78.372561,-34.875605
5.0,1440000000,-9.111300000e-05,-7.766500000e-05,2.516259000e-03,1.230562600e-02,-78.436498,-38.020031
5.0,1460000000,-9.152200000e-05,-7.861700000e-05,5.914529000e-03,-5.212407000e-03,-78.369308,-42.065530
5.0,1480000000,-9.340000000e-05,-7.728300000e-05,1.743112200e-02,1.979878800e-02,-78.327943,-31.574931
5.0,1500000000,-9.296200000e-05,-7.680300000e-05,5.498828000e-03,-2.042482400e-02,-78.374166,-33.492938
5.0,1520000000,-9.105200000e-05,-7.798400000e-05,1.052762000e-02,3.379191600e-02,-78.424837,-29.021445
5.0,1540000000,-9.064900000e-05,-7.960900000e-05,2.678170000e-02,1.486942600e-02,-78.369927,-30.276308
5.0,1560000000,-8.760500000e-05,-7.812900000e-05,4.709200000e-05,1.018247600e-02,-78.607893,-39.842839
5.0,1580000000,-9.393400000e-05,-7.681500000e-05,-5.221413000e-03,-2.685223000e-03,-78.319700,-44.625137
5.0,1600000000,-9.211500000e-05,-7.776500000e-05,4.810743600e-02,3.562180000e-04,-78.376576,-26.355518
5.0,1620000000,-9.349300000e-05,-7.589800000e-05,-2.636172000e-03,-1.344568000e-02,-78.385886,-37.264531
5.0,1640000000,-9.161600000e-05,-7.628200000e-05,2.578235400e-02,1.097682400e-02,-78.473315,-31.050084
5.0,1660000000,-8.985800000e-05,-7.943800000e-05,1.439454200e-02,-4.608920000e-04,-78.420945,-36.831593
5.0,1680000000,-9.121900000e-05,-8.161000000e-05,-3.006600000e-05,3.089810000e-04,-78.244564,-70.160436
5.0,1700000000,-8.794600000e-05,-7.658300000e-05,-2.836606000e-03,-2.823465000e-02,-78.664785,-30.940737
5.0,1720000000,-8.880800000e-05,-7.610800000e-05,3.483734800e-02,-1.647700200e-02,-78.639365,-28.282348
5.0,1740000000,-8.898900000e-05,-7.775700000e-05,-1.305471200e-02,-2.231287000e-03,-78.549531,-37.559601
5.0,1760000000,-9.132700000e-05,-7.802200000e-05,2.201977000e-03,-2.384864000e-03,-78.407923,-49.773127
5.0,1780000000,-8.872700000e-05,-7.860700000e-05,1.370550800e-02,7.498246000e-03,-78.522760,-36.124951
5.0,1800000000,-9.163500000e-05,-7.782200000e-05,6.902721600e-02,2.566167800e-02,-78.400349,-22.657381
5.0,1820000000,-9.610400000e-05,-8.081900000e-05,2.298890000e-04,4.262365000e-03,-78.022319,-47.394372
5.0,1840000000,-8.808500000e-05,-7.959100000e-05,3.493450400e-02,1.242887000e-02,-78.509751,-28.617300
5.0,1860000000,-9.301100000e-05,-8.309600000e-05,6.588717600e-02,3.065883600e-02,-78.081023,-22.772769
5.0,1880000000,-1.026520000e-04,-8.265100000e-05,1.739129000e-03,-3.674588000e-02,-77.602347,-28.686110
5.0,1900000000,-9.134300000e-05,-7.825400000e-05,-1.705441200e-02,6.238135600e-02,-78.396145,-23.785862
5.0,1920000000,-9.215300000e-05,-7.874700000e-05,1.257864800e-01,7.554908800e-02,-78.328817,-16.669579
5.0,1940000000,-1.025650000e-04,-6.814000000e-05,7.069327200e-02,1.268308200e-02,-78.192252,-22.874850
5.0,1960000000,-7.929600000e-05,-8.010400000e-05,1.462924000e-03,3.402230800e-02,-78.960422,-29.356702
5.0,1980000000,-9.975900000e-05,-6.508700000e-05,-1.186975000e-02,1.606557000e-02,-78.480734,-33.990342
5.0,2000000000,-9.829900000e-05,-6.509200000e-05,-9.821922000e-03,-6.874880800e-02,-78.569958,-23.166946
5.0,2020000000,-8.704900000e-05,-2.548400000e-05,1.025637400e-02,7.732116800e-02,-80.847605,-22.158282
5.0,2040000000,-9.673500000e-05,-6.952400000e-05,1.204712000e-01,3.272484200e-02,-78.479794,-18.073148
5.0,2060000000,-7.769400000e-05,-8.962300000e-05,1.484969440e-01,2.463168160e-01,-78.517479,-10.823721
5.0,2080000000,-1.014240000e-04,-1.098510000e-04,-1.926532800e-01,-2.079802240e-01,-76.506434,-10.949003
5.0,2100000000,-1.069870000e-04,-1.059650000e-04,2.675367200e-02,-1.918185920e-01,-76.444565,-14.258514
5.0,2120000000,-4.717200000e-05,-3.596500000e-05,-6.109340400e-02,-9.490322000e-03,-84.536204,-24.176559
5.0,2140000000,-1.116240000e-04,-7.704800000e-05,3.698712400e-02,7.687151200e-02,-77.352692,-21.380311
5.0,2160000000,-1.123610000e-04,-6.901600000e-05,2.149688320e-01,4.058306800e-02,-77.597453,-13.200402
5.0,2180000000,-7.710400000e-05,-1.143330000e-04,1.874328000e-03,-3.591168000e-01,-77.208566,-8.895167
5.0,2200000000,-1.217790000e-04,-8.189600000e-05,4.035928320e-01,-7.632132000e-02,-76.668132,-7.728537
5.0,2220000000,-7.855700000e-05,-1.315900000e-05,6.913244000e-02,-2.574152320e-01,-81.976121,-11.484855
5.0,2240000000,-6.704900000e-05,-3.832200000e-05,5.490057600e-02,8.515460800e-02,-82.244519,-19.886249
5.0,2260000000,-9.011700000e-05,-1.055760000e-04,2.027140800e-01,4.884612000e-02,-77.151777,-13.617210
5.0,2280000000,-1.351820000e-04,-5.851600000e-05,2.863391680e-01,-9.120997600e-02,-76.635744,-10.442671
5.0,2300000000,-4.789600000e-05,-8.652400000e-05,2.124091520e-01,-3.269668480e-01,-80.096421,-8.180851
5.0,2320000000,-9.008100000e-05,-6.296100000e-05,-1.946639680e-01,2.169367000e-02,-79.179807,-14.160685
5.0,2340000000,-9.339600000e-05,-1.148750000e-04,2.188896480e-01,-1.710445000e-03,-76.591777,-13.195230
5.0,2360000000,-8.080000000e-05,-6.606200000e-05,2.092866400e-01,-7.965521600e-02,-79.628594,-12.997650
5.0,2380000000,-1.236640000e-04,-7.308800000e-05,1.968904960e-01,-1.264483600e-01,-76.854031,-12.615758
5.0,2400000000,-1.339930000e-04,-1.175270000e-04,3.968384960e-01,7.700267200e-02,-74.980276,-7.867208
5.0,2420000000,-1.546350000e-04,-7.354400000e-05,-5.822763600e-02,-3.355744000e-01,-75.328256,-9.355396
5.0,2440000000,-1.142430000e-04,-9.631900000e-05,-1.985118240e-01,1.756908160e-01,-76.511344,-11.532040
5.0,2460000000,-3.995200000e-05,-7.897400000e-05,-8.765870400e-02,-1.106413600e-01,-81.060688,-17.005895
5.0,2480000000,-1.686440000e-04,-7.884600000e-05,4.829084000e-02,1.418910080e-01,-74.602029,-16.484924
5.0,2500000000,-6.837700000e-05,-5.074200000e-05,2.253702240e-01,1.599119360e-01,-81.396521,-11.171138
5.0,2520000000,-3.765200000e-05,-9.462500000e-05,2.462162080e-01,-4.708995200e-01,-79.841558,-5.491833
5.0,2540000000,-1.274590000e-04,-5.484900000e-05,8.201888000e-02,2.192588480e-01,-77.154743,-12.612072
5.0,2560000000,-5.066800000e-05,-4.921800000e-05,-2.305596800e-01,-1.207815840e-01,-83.019292,-11.691166
5.0,2580000000,-2.017200000e-05,1.489000000e-06,-9.659444000e-02,-1.880938240e-01,-93.881422,-13.495975
5.0,2600000000,-1.434230000e-04,-1.175070000e-04,1.022865120e-01,-9.313542400e-02,-74.637187,-17.181321
5.0,2620000000,-1.184850000e-04,-8.458200000e-05,8.520315200e-02,-1.717691200e-02,-76.738115,-21.217872
5.0,2640000000,-7.999800000e-05,-1.011840000e-04,7.095208800e-02,6.661698000e-03,-77.789020,-22.942580
5.0,2660000000,-6.308400000e-05,-9.598900000e-05,2.274998400e-02,3.155964200e-02,-78.796407,-28.199967
5.0,2680000000,-9.741400000e-05,-1.188390000e-04,1.139422320e-01,8.169852000e-03,-76.268636,-18.844035
5.0,2700000000,-6.941300000e-05,-1.884930000e-04,-3.289431000e-03,7.264808800e-02,-73.941804,-22.766621
5.0,2720000000,-1.541570000e-04,-1.026450000e-04,1.357656480e-01,-9.462053600e-02,-74.647011,-15.624816
5.0,2740000000,2.011400000e-05,-3.873300000e-05,1.702641120e-01,-7.381282400e-02,-87.201464,-14.629595
5.0,2760000000,-1.247010000e-04,-1.175100000e-04,1.540841760e-01,-1.364802720e-01,-75.322596,-13.729539
5.0,2780000000,-4.712700000e-05,-4.618100000e-05,9.454486400e-02,-2.302583400e-02,-83.611476,-20.236995
5.0,2800000000,-6.689100000e-05,-1.093590000e-04,7.061974400e-02,-3.516151200e-02,-77.842621,-22.059667
